(1761200157.533917) can0 244#000000016C
(1761200157.533972) can0 188#00000000
(1761200157.549122) can0 244#000000011A
(1761200157.564398) can0 244#00000001E8
(1761200157.579638) can0 244#0000000137
(1761200157.594884) can0 244#0000000174
(1761200157.610036) can0 244#0000000124
(1761200157.625193) can0 244#0000000178
(1761200157.640489) can0 244#0000000188
(1761200157.650735) can0 244#0000000113
(1761200157.665869) can0 244#000000014A
(1761200157.681132) can0 244#000000014C
(1761200157.696452) can0 244#00000001CB
(1761200157.711668) can0 244#0000000146
(1761200157.726930) can0 244#0000000106
(1761200157.742127) can0 244#00000001F3
(1761200157.757264) can0 244#000000013A
(1761200157.772510) can0 244#000000015A
(1761200157.782682) can0 244#00000001A8
(1761200157.797881) can0 244#000000018B
(1761200157.813140) can0 244#00000001AC
(1761200157.828343) can0 244#000000015C
(1761200157.843571) can0 244#000000015B
(1761200157.859064) can0 244#000000017D
(1761200157.874266) can0 244#00000001BF
(1761200157.889509) can0 244#0000000182
(1761200157.899772) can0 244#0000000150
(1761200157.909986) can0 244#000000011B
(1761200157.925165) can0 244#0000000122
(1761200157.940498) can0 244#000000014A
(1761200157.950822) can0 244#00000001D4
(1761200157.966050) can0 244#0000000114
(1761200157.981308) can0 244#0000000152
(1761200157.996775) can0 244#000000018B
(1761200158.011976) can0 244#0000000118
(1761200158.027356) can0 244#0000000126
(1761200158.037576) can0 188#00000000
(1761200158.042694) can0 244#000000019C
(1761200158.057873) can0 244#00000001D9
(1761200158.073106) can0 244#00000001BB
(1761200158.088275) can0 244#00000001C0
(1761200158.103611) can0 244#0000000189
(1761200158.113764) can0 244#00000001A2
(1761200158.128947) can0 244#0000000128
(1761200158.144137) can0 244#0000000170
(1761200158.159337) can0 244#0000000104
(1761200158.174681) can0 244#000000014A
(1761200158.189974) can0 244#00000001FF
(1761200158.205036) can0 244#000000015A
(1761200158.220220) can0 244#00000001C1
(1761200158.235450) can0 244#00000001C4
(1761200158.245590) can0 244#0000000102
(1761200158.260891) can0 244#000000010A
(1761200158.276059) can0 244#00000001BD
(1761200158.291239) can0 244#00000001FA
(1761200158.306556) can0 244#0000000123
(1761200158.316698) can0 244#0000000198
(1761200158.331908) can0 244#0000000118
(1761200158.347092) can0 244#0000000110
(1761200158.362310) can0 244#00000001CF
(1761200158.377518) can0 244#0000000156
(1761200158.387784) can0 244#0000000177
(1761200158.402995) can0 244#000000013F
(1761200158.418183) can0 244#0000000187
(1761200158.433489) can0 244#0000000167
(1761200158.448680) can0 244#0000000168
(1761200158.463891) can0 244#000000013B
(1761200158.479218) can0 244#00000001A9
(1761200158.494868) can0 244#000000011F
(1761200158.510355) can0 244#00000001B1
(1761200158.520662) can0 244#0000000100
(1761200158.536108) can0 244#000000017C
(1761200158.541204) can0 188#00000000
(1761200158.551492) can0 244#0000000156
(1761200158.565861) can0 244#00000001BF
(1761200158.581204) can0 244#00000001C1
(1761200158.596486) can0 244#00000001E2
(1761200158.606645) can0 244#00000001DF
(1761200158.621895) can0 244#00000001A8
(1761200158.637120) can0 244#000000017F
(1761200158.652384) can0 244#00000001D7
(1761200158.667642) can0 244#0000000106
(1761200158.682888) can0 244#000000015E
(1761200158.698080) can0 244#0000000176
(1761200158.713327) can0 244#00000001AD
(1761200158.728574) can0 244#00000001B8
(1761200158.738821) can0 244#000000018C
(1761200158.753983) can0 244#00000001EC
(1761200158.769136) can0 244#000000016C
(1761200158.784381) can0 244#00000001C1
(1761200158.799629) can0 244#0000000118
(1761200158.809806) can0 244#00000001D8
(1761200158.825141) can0 244#00000001B4
(1761200158.840620) can0 244#000000012B
(1761200158.850939) can0 244#0000000133
(1761200158.866485) can0 244#00000001D8
(1761200158.876833) can0 244#00000001AE
(1761200158.891909) can0 244#0000000137
(1761200158.907289) can0 244#000000012F
(1761200158.922775) can0 244#00000001F4
(1761200158.937954) can0 244#0000000173
(1761200158.953164) can0 244#00000001FD
(1761200158.968335) can0 244#0000000110
(1761200158.984779) can0 244#000000018C
(1761200159.003644) can0 244#00000001F0
(1761200159.013801) can0 244#00000001EB
(1761200159.028983) can0 244#0000000169
(1761200159.044165) can0 244#000000016F
(1761200159.044263) can0 188#00000000
(1761200159.059420) can0 244#0000000168
(1761200159.069866) can0 244#00000001AD
(1761200159.085282) can0 244#0000000109
(1761200159.100579) can0 244#00000001DB
(1761200159.111086) can0 244#00000001CF
(1761200159.126590) can0 244#0000000104
(1761200159.137070) can0 244#00000001ED
(1761200159.152608) can0 244#0000000118
(1761200159.163067) can0 244#00000001D8
(1761200159.178508) can0 244#0000000115
(1761200159.188875) can0 244#0000000120
(1761200159.204362) can0 244#0000000160
(1761200159.219622) can0 244#0000000173
(1761200159.234925) can0 244#00000001D5
(1761200159.250061) can0 244#00000001D5
(1761200159.265308) can0 244#0000000143
(1761200159.280673) can0 244#000000019E
(1761200159.296330) can0 244#00000001A5
(1761200159.311631) can0 244#0000000137
(1761200159.321831) can0 244#0000000168
(1761200159.336975) can0 244#00000001F9
(1761200159.352150) can0 244#0000000103
(1761200159.367292) can0 244#00000001F8
(1761200159.382566) can0 244#0000000108
(1761200159.392765) can0 244#000000019D
(1761200159.408024) can0 244#0000000125
(1761200159.423392) can0 244#00000001B0
(1761200159.438669) can0 244#00000001A9
(1761200159.448776) can0 244#00000001AD
(1761200159.463888) can0 244#00000001B5
(1761200159.479144) can0 244#0000000134
(1761200159.494574) can0 244#0000000130
(1761200159.504865) can0 244#000000017F
(1761200159.520131) can0 244#00000001DA
(1761200159.535364) can0 244#00000001A8
(1761200159.550649) can0 244#00000001EA
(1761200159.550888) can0 188#00000000
(1761200159.560871) can0 244#00000001FB
(1761200159.575478) can0 123#0100484F4C412045
(1761200159.576096) can0 244#00000001B1
(1761200159.591258) can0 244#000000011F
(1761200159.606494) can0 244#00000001EF
(1761200159.616750) can0 244#00000001E3
(1761200159.631975) can0 244#00000001DC
(1761200159.647048) can0 244#00000001EC
(1761200159.662338) can0 244#0000000172
(1761200159.677623) can0 244#000000014E
(1761200159.687937) can0 244#000000015D
(1761200159.703154) can0 244#0000000151
(1761200159.718576) can0 244#0000000108
(1761200159.729060) can0 244#000000011F
(1761200159.744582) can0 244#0000000125
(1761200159.754968) can0 244#000000010C
(1761200159.770153) can0 244#0000000134
(1761200159.776126) can0 123#0001515549504F20
(1761200159.785699) can0 244#0000000145
(1761200159.801121) can0 244#0000000121
(1761200159.816590) can0 244#0000000158
(1761200159.827080) can0 244#00000001FE
(1761200159.842402) can0 244#00000001E3
(1761200159.857731) can0 244#00000001A6
(1761200159.873089) can0 244#0000000144
(1761200159.888385) can0 244#00000001AC
(1761200159.903560) can0 244#0000000177
(1761200159.913715) can0 244#0000000115
(1761200159.928991) can0 244#000000017A
(1761200159.944134) can0 244#0000000192
(1761200159.959441) can0 244#000000010B
(1761200159.974732) can0 244#000000013D
(1761200159.976681) can0 123#0002444542494D4F
(1761200159.989882) can0 244#0000000199
(1761200160.005289) can0 244#0000000122
(1761200160.015742) can0 244#000000018C
(1761200160.031450) can0 244#0000000154
(1761200160.041891) can0 244#00000001AF
(1761200160.052213) can0 188#00000000
(1761200160.057444) can0 244#000000010B
(1761200160.072907) can0 244#00000001CD
(1761200160.088123) can0 244#0000000137
(1761200160.103607) can0 244#0000000119
(1761200160.113989) can0 244#0000000137
(1761200160.129467) can0 244#00000001B2
(1761200160.139854) can0 244#0000000188
(1761200160.155131) can0 244#00000001DC
(1761200160.170571) can0 244#00000001ED
(1761200160.177284) can0 123#0003532043414D42
(1761200160.180949) can0 244#00000001C9
(1761200160.196334) can0 244#0000000105
(1761200160.206791) can0 244#00000001BE
(1761200160.222365) can0 244#000000012A
(1761200160.237728) can0 244#00000001C3
(1761200160.253225) can0 244#0000000012
(1761200160.268639) can0 244#0000000024
(1761200160.278988) can0 244#0000000036
(1761200160.294087) can0 244#0000000048
(1761200160.309397) can0 244#000000005A
(1761200160.324809) can0 244#000000006C
(1761200160.340105) can0 244#000000007E
(1761200160.355303) can0 244#0000000090
(1761200160.370504) can0 244#00000000A2
(1761200160.377827) can0 123#0004494152204C41
(1761200160.380678) can0 244#00000000B5
(1761200160.395856) can0 244#00000000C7
(1761200160.411007) can0 244#00000000D9
(1761200160.426208) can0 244#00000000EB
(1761200160.441503) can0 244#00000000FD
(1761200160.451710) can0 244#000000010F
(1761200160.466946) can0 244#0000000121
(1761200160.482200) can0 244#0000000133
(1761200160.497468) can0 244#0000000145
(1761200160.512847) can0 244#0000000157
(1761200160.528072) can0 244#000000016A
(1761200160.543182) can0 244#000000017C
(1761200160.558453) can0 244#000000018E
(1761200160.558575) can0 188#00000000
(1761200160.573640) can0 244#00000001A0
(1761200160.578486) can0 123#0005204C49425245
(1761200160.583887) can0 244#00000001B2
(1761200160.599123) can0 244#00000001C4
(1761200160.614441) can0 244#00000001D6
(1761200160.629795) can0 244#00000001E8
(1761200160.644977) can0 244#00000001FA
(1761200160.660156) can0 244#000000020D
(1761200160.675379) can0 244#000000021F
(1761200160.690523) can0 244#0000000231
(1761200160.700702) can0 244#0000000243
(1761200160.715967) can0 244#0000000255
(1761200160.731124) can0 244#0000000267
(1761200160.746455) can0 244#0000000279
(1761200160.761656) can0 244#000000028B
(1761200160.777028) can0 244#000000029D
(1761200160.779169) can0 123#000652494120414E
(1761200160.792260) can0 244#00000002AF
(1761200160.807805) can0 244#00000002C2
(1761200160.823361) can0 244#00000002D4
(1761200160.833921) can0 244#00000002E6
(1761200160.849409) can0 244#00000002F8
(1761200160.859779) can0 244#000000030A
(1761200160.875316) can0 244#000000031C
(1761200160.890883) can0 244#000000032E
(1761200160.906450) can0 244#0000000340
(1761200160.916901) can0 244#0000000352
(1761200160.932308) can0 244#0000000365
(1761200160.947560) can0 244#0000000377
(1761200160.962809) can0 244#0000000389
(1761200160.977919) can0 244#000000039B
(1761200160.979469) can0 123#0207544553
(1761200160.993139) can0 244#00000003AD
(1761200161.008399) can0 244#00000003BF
(1761200161.023697) can0 244#00000003D1
(1761200161.033844) can0 244#00000003E3
(1761200161.049029) can0 244#00000003F5
(1761200161.059276) can0 188#00000000
(1761200161.064339) can0 244#0000000407
(1761200161.079535) can0 244#000000041A
(1761200161.089745) can0 244#000000042C
(1761200161.105023) can0 244#000000043E
(1761200161.120199) can0 244#0000000450
(1761200161.135426) can0 244#0000000462
(1761200161.150688) can0 244#0000000474
(1761200161.160907) can0 244#0000000486
(1761200161.176012) can0 244#0000000498
(1761200161.191233) can0 244#00000004AA
(1761200161.206720) can0 244#00000004BD
(1761200161.216916) can0 244#00000004CF
(1761200161.232058) can0 244#00000004E1
(1761200161.247269) can0 244#00000004F3
(1761200161.262452) can0 244#0000000505
(1761200161.277790) can0 244#0000000517
(1761200161.293020) can0 244#0000000529
(1761200161.308148) can0 244#000000053B
(1761200161.323431) can0 244#000000054D
(1761200161.338661) can0 244#000000055F
(1761200161.348799) can0 244#0000000572
(1761200161.364191) can0 244#0000000584
(1761200161.379656) can0 244#0000000596
(1761200161.389926) can0 244#00000005A8
(1761200161.405042) can0 244#00000005BA
(1761200161.420289) can0 244#00000005CC
(1761200161.435550) can0 244#00000005DE
(1761200161.445724) can0 244#00000005F0
(1761200161.461172) can0 244#0000000602
(1761200161.476249) can0 244#0000000615
(1761200161.491517) can0 244#0000000627
(1761200161.501767) can0 244#0000000639
(1761200161.517028) can0 244#000000064B
(1761200161.532185) can0 244#000000065D
(1761200161.547430) can0 244#000000066F
(1761200161.562643) can0 244#0000000681
(1761200161.562669) can0 188#00000000
(1761200161.572899) can0 244#0000000693
(1761200161.588078) can0 244#00000006A5
(1761200161.603337) can0 244#00000006B7
(1761200161.618609) can0 244#00000006CA
(1761200161.628973) can0 244#00000006DC
(1761200161.644349) can0 244#00000006EE
(1761200161.659638) can0 244#0000000700
(1761200161.669782) can0 244#0000000712
(1761200161.684990) can0 244#0000000724
(1761200161.700307) can0 244#0000000736
(1761200161.715515) can0 244#0000000748
(1761200161.725786) can0 244#000000075A
(1761200161.741064) can0 244#000000076D
(1761200161.756196) can0 244#000000077F
(1761200161.771426) can0 244#0000000791
(1761200161.786703) can0 244#00000007A3
(1761200161.796790) can0 244#00000007B5
(1761200161.812078) can0 244#00000007C7
(1761200161.827299) can0 244#00000007D9
(1761200161.842512) can0 244#00000007EB
(1761200161.857825) can0 244#00000007FD
(1761200161.873066) can0 244#000000080F
(1761200161.888145) can0 244#0000000822
(1761200161.903452) can0 244#0000000834
(1761200161.913597) can0 244#0000000846
(1761200161.923772) can0 244#0000000858
(1761200161.939035) can0 244#000000086A
(1761200161.954168) can0 244#000000087C
(1761200161.969371) can0 244#000000088E
(1761200161.984617) can0 244#00000008A0
(1761200161.994960) can0 244#00000008B2
(1761200162.010035) can0 244#00000008C5
(1761200162.025272) can0 244#00000008D7
(1761200162.040452) can0 244#00000008E9
(1761200162.055755) can0 244#00000008FB
(1761200162.065974) can0 188#00000000
(1761200162.070964) can0 244#000000090D
(1761200162.086168) can0 244#000000091F
(1761200162.101476) can0 244#0000000931
(1761200162.116669) can0 244#0000000943
(1761200162.126933) can0 244#0000000955
(1761200162.142066) can0 244#0000000967
(1761200162.157322) can0 244#000000097A
(1761200162.172629) can0 244#000000098C
(1761200162.187786) can0 244#000000099E
(1761200162.202889) can0 244#00000009B0
(1761200162.218057) can0 244#00000009C2
(1761200162.233378) can0 244#00000009D4
(1761200162.248607) can0 244#00000009E6
(1761200162.258773) can0 244#00000009F8
(1761200162.273988) can0 244#0000000A0A
(1761200162.289213) can0 244#0000000A1D
(1761200162.304472) can0 244#0000000A2F
(1761200162.319693) can0 244#0000000A41
(1761200162.330057) can0 244#0000000A53
(1761200162.345290) can0 244#0000000A65
(1761200162.360806) can0 244#0000000A77
(1761200162.376116) can0 244#0000000A89
(1761200162.391521) can0 244#0000000A9B
(1761200162.401926) can0 244#0000000AAD
(1761200162.417423) can0 244#0000000ABF
(1761200162.432843) can0 244#0000000AD2
(1761200162.448082) can0 244#0000000AE4
(1761200162.463448) can0 244#0000000AF6
(1761200162.478462) can0 244#0000000B08
(1761200162.493940) can0 244#0000000B1A
(1761200162.509115) can0 244#0000000B2C
(1761200162.524516) can0 244#0000000B3E
(1761200162.539669) can0 244#0000000B50
(1761200162.549817) can0 244#0000000B62
(1761200162.565035) can0 244#0000000B75
(1761200162.570168) can0 188#00000000
(1761200162.580258) can0 244#0000000B87
(1761200162.595452) can0 244#0000000B99
(1761200162.610771) can0 244#0000000BAB
(1761200162.620775) can0 244#0000000BBD
(1761200162.636009) can0 244#0000000BCF
(1761200162.651282) can0 244#0000000BE1
(1761200162.666561) can0 244#0000000BF3
(1761200162.681899) can0 244#0000000C05
(1761200162.697138) can0 244#0000000C17
(1761200162.712464) can0 244#0000000C2A
(1761200162.728015) can0 244#0000000C3C
(1761200162.743358) can0 244#0000000C4E
(1761200162.758952) can0 244#0000000C60
(1761200162.774336) can0 244#0000000C72
(1761200162.784864) can0 244#0000000C84
(1761200162.800185) can0 244#0000000C96
(1761200162.815556) can0 244#0000000CA8
(1761200162.830743) can0 244#0000000CBA
(1761200162.841021) can0 244#0000000CCD
(1761200162.856181) can0 244#0000000CDF
(1761200162.871433) can0 244#0000000CF1
(1761200162.886728) can0 244#0000000D03
(1761200162.896940) can0 244#0000000D15
(1761200162.907076) can0 244#0000000D27
(1761200162.922276) can0 244#0000000D39
(1761200162.937538) can0 244#0000000D4B
(1761200162.952964) can0 244#0000000D5D
(1761200162.968291) can0 244#0000000D6F
(1761200162.983448) can0 244#0000000D82
(1761200162.998693) can0 244#0000000D94
(1761200163.008838) can0 244#0000000DA6
(1761200163.024087) can0 244#0000000DB8
(1761200163.039344) can0 244#0000000DCA
(1761200163.054683) can0 244#0000000DDC
(1761200163.065021) can0 244#0000000DEE
(1761200163.070044) can0 188#00000000
(1761200163.080369) can0 244#0000000E00
(1761200163.095745) can0 244#0000000E12
(1761200163.106104) can0 244#0000000E24
(1761200163.121389) can0 244#0000000E37
(1761200163.136826) can0 244#0000000E49
(1761200163.146978) can0 244#0000000E5B
(1761200163.162064) can0 244#0000000E6D
(1761200163.177378) can0 244#0000000E7F
(1761200163.182018) can0 123#0100484F4C412045
(1761200163.192639) can0 244#0000000E91
(1761200163.208021) can0 244#0000000EA3
(1761200163.223433) can0 244#0000000EB5
(1761200163.238983) can0 244#0000000EC7
(1761200163.254333) can0 244#0000000EDA
(1761200163.269712) can0 244#0000000EEC
(1761200163.279946) can0 244#0000000EFE
(1761200163.295202) can0 244#0000000F10
(1761200163.310545) can0 244#0000000F22
(1761200163.325741) can0 244#0000000F34
(1761200163.335965) can0 244#0000000F46
(1761200163.351467) can0 244#0000000F58
(1761200163.366701) can0 244#0000000F6A
(1761200163.376899) can0 244#0000000F7C
(1761200163.382497) can0 123#0001515549504F20
(1761200163.392028) can0 244#0000000F8F
(1761200163.407238) can0 244#0000000FA1
(1761200163.422601) can0 244#0000000FB3
(1761200163.437970) can0 244#0000000FC5
(1761200163.453129) can0 244#0000000FD7
(1761200163.468359) can0 244#0000000FE9
(1761200163.483930) can0 244#0000000FFB
(1761200163.499375) can0 244#000000100D
(1761200163.514802) can0 244#000000101F
(1761200163.530249) can0 244#0000001032
(1761200163.545605) can0 244#0000001044
(1761200163.556060) can0 244#0000001056
(1761200163.571510) can0 244#0000001068
(1761200163.576723) can0 188#00000000
(1761200163.581913) can0 244#000000107A
(1761200163.583622) can0 123#0002444542494D4F
(1761200163.597454) can0 244#000000108C
(1761200163.612945) can0 244#000000109E
(1761200163.628475) can0 244#00000010B0
(1761200163.644005) can0 244#00000010C2
(1761200163.659470) can0 244#00000010D4
(1761200163.674990) can0 244#00000010E7
(1761200163.690180) can0 244#00000010F9
(1761200163.705419) can0 244#000000110B
(1761200163.720635) can0 244#000000111D
(1761200163.730904) can0 244#000000112F
(1761200163.746119) can0 244#0000001141
(1761200163.761244) can0 244#0000001153
(1761200163.776561) can0 244#0000001165
(1761200163.783794) can0 123#0003532043414D42
(1761200163.791839) can0 244#0000001177
(1761200163.801923) can0 244#000000118A
(1761200163.817199) can0 244#000000119C
(1761200163.832400) can0 244#00000011AE
(1761200163.847619) can0 244#00000011C0
(1761200163.857774) can0 244#00000011D2
(1761200163.873120) can0 244#00000011E4
(1761200163.888263) can0 244#00000011F6
(1761200163.903802) can0 244#0000001208
(1761200163.914049) can0 244#000000121A
(1761200163.929347) can0 244#000000122C
(1761200163.944801) can0 244#000000123F
(1761200163.960477) can0 244#0000001251
(1761200163.970870) can0 244#0000001263
(1761200163.984386) can0 123#0004494152204C41
(1761200163.986349) can0 244#0000001275
(1761200163.996882) can0 244#0000001287
(1761200164.012333) can0 244#0000001299
(1761200164.027845) can0 244#00000012AB
(1761200164.043275) can0 244#00000012BD
(1761200164.058745) can0 244#00000012CF
(1761200164.069174) can0 244#00000012E2
(1761200164.079457) can0 188#00000000
(1761200164.084620) can0 244#00000012F4
(1761200164.094968) can0 244#0000001306
(1761200164.110448) can0 244#0000001318
(1761200164.121031) can0 244#000000132A
(1761200164.136215) can0 244#000000133C
(1761200164.151496) can0 244#000000134E
(1761200164.166837) can0 244#0000001360
(1761200164.182032) can0 244#0000001372
(1761200164.185076) can0 123#0005204C49425245
(1761200164.197218) can0 244#0000001384
(1761200164.212792) can0 244#0000001397
(1761200164.223007) can0 244#00000013A9
(1761200164.238206) can0 244#00000013BB
(1761200164.253724) can0 244#00000013CD
(1761200164.264109) can0 244#00000013DF
(1761200164.279412) can0 244#00000013F1
(1761200164.294814) can0 244#0000001403
(1761200164.304951) can0 244#0000001415
(1761200164.320234) can0 244#0000001427
(1761200164.335427) can0 244#000000143A
(1761200164.350631) can0 244#000000144C
(1761200164.360841) can0 244#000000145E
(1761200164.376096) can0 244#0000001470
(1761200164.385560) can0 123#000652494120414E
(1761200164.391212) can0 244#0000001482
(1761200164.406587) can0 244#0000001494
(1761200164.421892) can0 244#00000014A6
(1761200164.437265) can0 244#00000014B8
(1761200164.452486) can0 244#00000014CA
(1761200164.467965) can0 244#00000014DC
(1761200164.483150) can0 244#00000014EF
(1761200164.498529) can0 244#0000001501
(1761200164.508835) can0 244#0000001513
(1761200164.524139) can0 244#0000001525
(1761200164.539304) can0 244#0000001537
(1761200164.554844) can0 244#0000001549
(1761200164.570283) can0 244#000000155B
(1761200164.585629) can0 244#000000156D
(1761200164.585743) can0 188#00000000
(1761200164.585976) can0 123#0207544553
(1761200164.595848) can0 244#000000157F
(1761200164.611115) can0 244#0000001592
(1761200164.626365) can0 244#00000015A4
(1761200164.641606) can0 244#00000015B6
(1761200164.657005) can0 244#00000015C8
(1761200164.672504) can0 244#00000015DA
(1761200164.682884) can0 244#00000015EC
(1761200164.698286) can0 244#00000015FE
(1761200164.713643) can0 244#0000001610
(1761200164.723870) can0 244#0000001622
(1761200164.739163) can0 244#0000001634
(1761200164.754515) can0 244#0000001647
(1761200164.769801) can0 244#0000001659
(1761200164.780052) can0 244#000000166B
(1761200164.795505) can0 244#000000167D
(1761200164.805850) can0 244#000000168F
(1761200164.821210) can0 244#00000016A1
(1761200164.836632) can0 244#00000016B3
(1761200164.847004) can0 244#00000016C5
(1761200164.862324) can0 244#00000016D7
(1761200164.877536) can0 244#00000016EA
(1761200164.892873) can0 244#00000016FC
(1761200164.902961) can0 244#000000170E
(1761200164.913209) can0 244#0000001720
(1761200164.928429) can0 244#0000001732
(1761200164.943629) can0 244#0000001744
(1761200164.958898) can0 244#0000001756
(1761200164.974301) can0 244#0000001768
(1761200164.989840) can0 244#000000177A
(1761200165.005188) can0 244#000000178C
(1761200165.020637) can0 244#000000179F
(1761200165.035781) can0 244#00000017B1
(1761200165.046062) can0 244#00000017C3
(1761200165.061569) can0 244#00000017D5
(1761200165.076884) can0 244#00000017E7
(1761200165.087164) can0 188#00000000
(1761200165.092284) can0 244#00000017F9
(1761200165.107894) can0 244#000000180B
(1761200165.123293) can0 244#000000181D
(1761200165.138820) can0 244#000000182F
(1761200165.154072) can0 244#0000001841
(1761200165.169620) can0 244#0000001854
(1761200165.180026) can0 244#0000001866
(1761200165.195220) can0 244#0000001878
(1761200165.210447) can0 244#000000188A
(1761200165.225718) can0 244#000000189C
(1761200165.235854) can0 244#00000018AE
(1761200165.251121) can0 244#00000018C0
(1761200165.266406) can0 244#00000018D2
(1761200165.281552) can0 244#00000018E4
(1761200165.296800) can0 244#00000018F7
(1761200165.307182) can0 244#0000001909
(1761200165.322385) can0 244#000000191B
(1761200165.337608) can0 244#000000192D
(1761200165.347913) can0 244#000000193F
(1761200165.363156) can0 244#0000001951
(1761200165.378408) can0 244#0000001963
(1761200165.393570) can0 244#0000001975
(1761200165.408876) can0 244#0000001987
(1761200165.419024) can0 244#0000001999
(1761200165.434255) can0 244#00000019AC
(1761200165.449458) can0 244#00000019BE
(1761200165.464828) can0 244#00000019D0
(1761200165.474977) can0 244#00000019E2
(1761200165.490198) can0 244#00000019F4
(1761200165.505356) can0 244#0000001A06
(1761200165.520707) can0 244#0000001A18
(1761200165.535874) can0 244#0000001A2A
(1761200165.551291) can0 244#0000001A3C
(1761200165.566763) can0 244#0000001A4F
(1761200165.577101) can0 244#0000001A61
(1761200165.592522) can0 244#0000001A73
(1761200165.592720) can0 188#00000000
(1761200165.607810) can0 244#0000001A85
(1761200165.618021) can0 244#0000001A97
(1761200165.633216) can0 244#0000001AA9
(1761200165.648561) can0 244#0000001ABB
(1761200165.663813) can0 244#0000001ACD
(1761200165.673957) can0 244#0000001ADF
(1761200165.689157) can0 244#0000001AF1
(1761200165.704423) can0 244#0000001B04
(1761200165.719726) can0 244#0000001B16
(1761200165.735024) can0 244#0000001B28
(1761200165.750234) can0 244#0000001B3A
(1761200165.765725) can0 244#0000001B4C
(1761200165.776069) can0 244#0000001B5E
(1761200165.791391) can0 244#0000001B70
(1761200165.806741) can0 244#0000001B82
(1761200165.821979) can0 244#0000001B94
(1761200165.837159) can0 244#0000001BA7
(1761200165.852407) can0 244#0000001BB9
(1761200165.867534) can0 244#0000001BCB
(1761200165.882876) can0 244#0000001BDD
(1761200165.892941) can0 244#0000001BEF
(1761200165.908224) can0 244#0000001C01
(1761200165.923367) can0 244#0000001C13
(1761200165.938603) can0 244#0000001C25
(1761200165.953993) can0 244#0000001C37
(1761200165.969116) can0 244#0000001C49
(1761200165.984341) can0 244#0000001C5C
(1761200165.999575) can0 244#0000001C6E
(1761200166.014886) can0 244#0000001C80
(1761200166.025104) can0 244#0000001C92
(1761200166.040248) can0 244#0000001CA4
(1761200166.055451) can0 244#0000001CB6
(1761200166.070716) can0 244#0000001CC8
(1761200166.085955) can0 244#0000001CDA
(1761200166.096094) can0 188#00000000
(1761200166.101297) can0 244#0000001CEC
(1761200166.116320) can0 244#0000001CFF
(1761200166.131623) can0 244#0000001D11
(1761200166.146951) can0 244#0000001D23
(1761200166.157094) can0 244#0000001D35
(1761200166.172231) can0 244#0000001D47
(1761200166.187482) can0 244#0000001D59
(1761200166.202642) can0 244#0000001D6B
(1761200166.217942) can0 244#0000001D7D
(1761200166.233139) can0 244#0000001D8F
(1761200166.248321) can0 244#0000001DA1
(1761200166.263487) can0 244#0000001DB4
(1761200166.278875) can0 244#0000001DC6
(1761200166.289051) can0 244#0000001DD8
(1761200166.304255) can0 244#0000001DEA
(1761200166.319526) can0 244#0000001DFC
(1761200166.334762) can0 244#0000001E0E
(1761200166.344964) can0 244#0000001E20
(1761200166.360145) can0 244#0000001E32
(1761200166.375430) can0 244#0000001E44
(1761200166.390692) can0 244#0000001E57
(1761200166.405928) can0 244#0000001E69
(1761200166.421059) can0 244#0000001E7B
(1761200166.436341) can0 244#0000001E8D
(1761200166.451738) can0 244#0000001E9F
(1761200166.461951) can0 244#0000001EB1
(1761200166.477219) can0 244#0000001EC3
(1761200166.492586) can0 244#0000001ED5
(1761200166.507737) can0 244#0000001EE7
(1761200166.518041) can0 244#0000001EF9
(1761200166.533416) can0 244#0000001F0C
(1761200166.548735) can0 244#0000001F1E
(1761200166.559056) can0 244#0000001F30
(1761200166.574452) can0 244#0000001F42
(1761200166.590025) can0 244#0000001F54
(1761200166.600155) can0 188#00000000
(1761200166.605252) can0 244#0000001F66
(1761200166.620607) can0 244#0000001F78
(1761200166.635965) can0 244#0000001F8A
(1761200166.651248) can0 244#0000001F9C
(1761200166.666843) can0 244#0000001FAF
(1761200166.677127) can0 244#0000001FC1
(1761200166.692419) can0 244#0000001FD3
(1761200166.707714) can0 244#0000001FE5
(1761200166.717981) can0 244#0000001FF7
(1761200166.733193) can0 244#0000002009
(1761200166.748395) can0 244#000000201B
(1761200166.763667) can0 244#000000202D
(1761200166.774009) can0 244#000000203F
(1761200166.788606) can0 123#0100484F4C412045
(1761200166.789247) can0 244#0000002051
(1761200166.804479) can0 244#0000002064
(1761200166.819686) can0 244#0000002076
(1761200166.834913) can0 244#0000002088
(1761200166.850366) can0 244#000000209A
(1761200166.865836) can0 244#00000020AC
(1761200166.876091) can0 244#00000020BE
(1761200166.891367) can0 244#00000020D0
(1761200166.906786) can0 244#00000020E2
(1761200166.917059) can0 244#00000020F4
(1761200166.932311) can0 244#0000002107
(1761200166.947711) can0 244#0000002119
(1761200166.962954) can0 244#000000212B
(1761200166.978165) can0 244#000000213D
(1761200166.989100) can0 123#0001515549504F20
(1761200166.993443) can0 244#000000214F
(1761200167.008852) can0 244#0000002161
(1761200167.019049) can0 244#0000002173
(1761200167.034406) can0 244#0000002185
(1761200167.049839) can0 244#0000002197
(1761200167.060758) can0 244#00000021A9
(1761200167.071128) can0 244#00000021BC
(1761200167.086348) can0 244#00000021CE
(1761200167.102054) can0 244#00000021E0
(1761200167.102063) can0 188#00000000
(1761200167.117462) can0 244#00000021F2
(1761200167.133081) can0 244#0000002204
(1761200167.148321) can0 244#0000002216
(1761200167.163988) can0 244#0000002228
(1761200167.179861) can0 244#000000223A
(1761200167.189570) can0 123#0002444542494D4F
(1761200167.190194) can0 244#000000224C
(1761200167.205634) can0 244#000000225E
(1761200167.216240) can0 244#0000002271
(1761200167.231710) can0 244#0000002283
(1761200167.242118) can0 244#0000002295
(1761200167.257544) can0 244#00000022A7
(1761200167.273143) can0 244#00000022B9
(1761200167.288440) can0 244#00000022CB
(1761200167.303824) can0 244#00000022DD
(1761200167.314407) can0 244#00000022EF
(1761200167.329507) can0 244#0000002301
(1761200167.345260) can0 244#0000002314
(1761200167.360761) can0 244#0000002326
(1761200167.371062) can0 244#0000002338
(1761200167.386702) can0 244#000000234A
(1761200167.390301) can0 123#0003532043414D42
(1761200167.397207) can0 244#000000235C
(1761200167.412739) can0 244#000000236E
(1761200167.423140) can0 244#0000002380
(1761200167.438638) can0 244#0000002392
(1761200167.454105) can0 244#00000023A4
(1761200167.469467) can0 244#00000023B6
(1761200167.480106) can0 244#00000023C9
(1761200167.495527) can0 244#00000023DB
(1761200167.506303) can0 244#00000023ED
(1761200167.521593) can0 244#00000023FF
(1761200167.532077) can0 244#0000002411
(1761200167.547618) can0 244#0000002423
(1761200167.558034) can0 244#0000002435
(1761200167.573313) can0 244#0000002447
(1761200167.588963) can0 244#0000002459
(1761200167.590947) can0 123#0004494152204C41
(1761200167.599119) can0 244#000000246C
(1761200167.604257) can0 188#00000000
(1761200167.614334) can0 244#000000247E
(1761200167.629556) can0 244#0000002490
(1761200167.644865) can0 244#00000024A2
(1761200167.655170) can0 244#00000024B4
(1761200167.670205) can0 244#00000024C6
(1761200167.685477) can0 244#00000024D8
(1761200167.700729) can0 244#00000024EA
(1761200167.715908) can0 244#00000024FC
(1761200167.726113) can0 244#000000250E
(1761200167.741260) can0 244#0000002521
(1761200167.756489) can0 244#0000002533
(1761200167.771851) can0 244#0000002545
(1761200167.787010) can0 244#0000002557
(1761200167.791444) can0 123#0005204C49425245
(1761200167.802213) can0 244#0000002569
(1761200167.817447) can0 244#000000257B
(1761200167.832729) can0 244#000000258D
(1761200167.848054) can0 244#000000259F
(1761200167.863243) can0 244#00000025B1
(1761200167.878587) can0 244#00000025C4
(1761200167.893816) can0 244#00000025D6
(1761200167.904016) can0 244#00000025E8
(1761200167.914209) can0 244#00000025FA
(1761200167.929506) can0 244#000000260C
(1761200167.945019) can0 244#000000261E
(1761200167.960383) can0 244#0000002630
(1761200167.975937) can0 244#0000002642
(1761200167.991328) can0 244#0000002654
(1761200167.992166) can0 123#000652494120414E
(1761200168.006828) can0 244#0000002666
(1761200168.016993) can0 244#0000002679
(1761200168.032409) can0 244#000000268B
(1761200168.047485) can0 244#000000269D
(1761200168.062785) can0 244#00000026AF
(1761200168.077946) can0 244#00000026C1
(1761200168.093297) can0 244#00000026D3
(1761200168.108408) can0 244#00000026E5
(1761200168.108515) can0 188#00000000
(1761200168.123872) can0 244#00000026F7
(1761200168.134016) can0 244#0000002709
(1761200168.149276) can0 244#000000271C
(1761200168.164497) can0 244#000000272E
(1761200168.179814) can0 244#0000002740
(1761200168.189973) can0 244#0000002752
(1761200168.192442) can0 123#0207544553
(1761200168.205147) can0 244#0000002764
(1761200168.220449) can0 244#0000002776
(1761200168.235988) can0 244#0000002788
(1761200168.251268) can0 244#000000279A
(1761200168.266472) can0 244#00000027AC
(1761200168.281676) can0 244#00000027BE
(1761200168.296991) can0 244#00000027D1
(1761200168.312221) can0 244#00000027E3
(1761200168.327531) can0 244#00000027F5
(1761200168.342787) can0 244#0000002807
(1761200168.358001) can0 244#0000002819
(1761200168.368005) can0 244#000000282B
(1761200168.383268) can0 244#000000283D
(1761200168.398616) can0 244#000000284F
(1761200168.413775) can0 244#0000002861
(1761200168.429012) can0 244#0000002874
(1761200168.444206) can0 244#0000002886
(1761200168.459813) can0 244#0000002898
(1761200168.469996) can0 244#00000028AA
(1761200168.485349) can0 244#00000028BC
(1761200168.500630) can0 244#00000028CE
(1761200168.515825) can0 244#00000028E0
(1761200168.531115) can0 244#00000028F2
(1761200168.546366) can0 244#0000002904
(1761200168.561677) can0 244#0000002916
(1761200168.576928) can0 244#0000002929
(1761200168.587022) can0 244#000000293B
(1761200168.602268) can0 244#000000294D
(1761200168.612402) can0 188#00000000
(1761200168.617514) can0 244#000000295F
(1761200168.632864) can0 244#0000002971
(1761200168.648113) can0 244#0000002983
(1761200168.663284) can0 244#0000002995
(1761200168.678423) can0 244#00000029A7
(1761200168.693821) can0 244#00000029B9
(1761200168.708975) can0 244#00000029CC
(1761200168.724292) can0 244#00000029DE
(1761200168.739419) can0 244#00000029F0
(1761200168.754668) can0 244#0000002A02
(1761200168.769754) can0 244#0000002A14
(1761200168.785047) can0 244#0000002A26
(1761200168.800304) can0 244#0000002A38
(1761200168.815606) can0 244#0000002A4A
(1761200168.830730) can0 244#0000002A5C
(1761200168.845954) can0 244#0000002A6E
(1761200168.856168) can0 244#0000002A81
(1761200168.871426) can0 244#0000002A93
(1761200168.886600) can0 244#0000002AA5
(1761200168.901970) can0 244#0000002AB7
(1761200168.911972) can0 244#0000002AC9
(1761200168.927237) can0 244#0000002ADB
(1761200168.942433) can0 244#0000002AED
(1761200168.957756) can0 244#0000002AFF
(1761200168.972971) can0 244#0000002B11
(1761200168.983112) can0 244#0000002B24
(1761200168.998260) can0 244#0000002B36
(1761200169.013509) can0 244#0000002B48
(1761200169.028725) can0 244#0000002B5A
(1761200169.043988) can0 244#0000002B6C
(1761200169.054102) can0 244#0000002B7E
(1761200169.069288) can0 244#0000002B90
(1761200169.084810) can0 244#0000002BA2
(1761200169.095122) can0 244#0000002BB4
(1761200169.110436) can0 244#0000002BC6
(1761200169.115541) can0 188#00000000
(1761200169.125885) can0 244#0000002BD9
(1761200169.136032) can0 244#0000002BEB
(1761200169.151326) can0 244#0000002BFD
(1761200169.166513) can0 244#0000002C0F
(1761200169.181833) can0 244#0000002C21
(1761200169.196972) can0 244#0000002C33
(1761200169.212359) can0 244#0000002C45
(1761200169.227427) can0 244#0000002C57
(1761200169.242682) can0 244#0000002C69
(1761200169.257937) can0 244#0000002C7C
(1761200169.268029) can0 244#0000002C8E
(1761200169.283248) can0 244#0000002CA0
(1761200169.298490) can0 244#0000002CB2
(1761200169.313740) can0 244#0000002CC4
(1761200169.328938) can0 244#0000002CD6
(1761200169.339210) can0 244#0000002CE8
(1761200169.354430) can0 244#0000002CFA
(1761200169.369636) can0 244#0000002D0C
(1761200169.384854) can0 244#0000002D1E
(1761200169.395072) can0 244#0000002D31
(1761200169.410331) can0 244#0000002D43
(1761200169.425582) can0 244#0000002D55
(1761200169.440854) can0 244#0000002D67
(1761200169.451022) can0 244#0000002D79
(1761200169.466235) can0 244#0000002D8B
(1761200169.481557) can0 244#0000002D9D
(1761200169.496801) can0 244#0000002DAF
(1761200169.511967) can0 244#0000002DC1
(1761200169.522205) can0 244#0000002DD4
(1761200169.537479) can0 244#0000002DE6
(1761200169.552635) can0 244#0000002DF8
(1761200169.568020) can0 244#0000002E0A
(1761200169.578098) can0 244#0000002E1C
(1761200169.593296) can0 244#0000002E2E
(1761200169.608605) can0 244#0000002E40
(1761200169.618949) can0 188#00000000
(1761200169.624004) can0 244#0000002E52
(1761200169.639365) can0 244#0000002E64
(1761200169.654640) can0 244#0000002E76
(1761200169.669917) can0 244#0000002E89
(1761200169.680160) can0 244#0000002E9B
(1761200169.695522) can0 244#0000002EAD
(1761200169.710681) can0 244#0000002EBF
(1761200169.725876) can0 244#0000002ED1
(1761200169.735983) can0 244#0000002EE3
(1761200169.751277) can0 244#0000002EF5
(1761200169.766524) can0 244#0000002F07
(1761200169.781809) can0 244#0000002F19
(1761200169.796942) can0 244#0000002F2C
(1761200169.807123) can0 244#0000002F3E
(1761200169.822328) can0 244#0000002F50
(1761200169.837534) can0 244#0000002F62
(1761200169.852918) can0 244#0000002F74
(1761200169.863063) can0 244#0000002F86
(1761200169.878282) can0 244#0000002F98
(1761200169.893535) can0 244#0000002FAA
(1761200169.908866) can0 244#0000002FBC
(1761200169.924027) can0 244#0000002FCE
(1761200169.939286) can0 244#0000002FE1
(1761200169.954511) can0 244#0000002FF3
(1761200169.969723) can0 244#0000003005
(1761200169.984955) can0 244#0000003017
(1761200169.995088) can0 244#0000003029
(1761200170.010305) can0 244#000000303B
(1761200170.026097) can0 244#000000304D
(1761200170.041591) can0 244#000000305F
(1761200170.056976) can0 244#0000003071
(1761200170.067067) can0 244#0000003084
(1761200170.082298) can0 244#0000003096
(1761200170.097676) can0 244#00000030A8
(1761200170.112871) can0 244#00000030BA
(1761200170.122906) can0 188#00000000
(1761200170.127928) can0 244#00000030CC
(1761200170.138145) can0 244#00000030DE
(1761200170.153281) can0 244#00000030F0
(1761200170.168713) can0 244#0000003102
(1761200170.179045) can0 244#0000003114
(1761200170.194459) can0 244#0000003126
(1761200170.209687) can0 244#0000003139
(1761200170.224983) can0 244#000000314B
(1761200170.235175) can0 244#000000315D
(1761200170.250806) can0 244#000000316F
(1761200170.261389) can0 244#0000003181
(1761200170.276863) can0 244#0000003193
(1761200170.287719) can0 244#00000031A5
(1761200170.298074) can0 244#00000031B7
(1761200170.313552) can0 244#00000031C9
(1761200170.328964) can0 244#00000031DC
(1761200170.339248) can0 244#00000031EE
(1761200170.354585) can0 244#0000003200
(1761200170.370048) can0 244#0000003212
(1761200170.385474) can0 244#0000003224
(1761200170.394958) can0 123#0100484F4C412045
(1761200170.401039) can0 244#0000003236
(1761200170.411246) can0 244#0000003248
(1761200170.426644) can0 244#000000325A
(1761200170.442027) can0 244#000000326C
(1761200170.452292) can0 244#000000327E
(1761200170.467732) can0 244#0000003291
(1761200170.483082) can0 244#00000032A3
(1761200170.493186) can0 244#00000032B5
(1761200170.508493) can0 244#00000032C7
(1761200170.523788) can0 244#00000032D9
(1761200170.539197) can0 244#00000032EB
(1761200170.554423) can0 244#00000032FD
(1761200170.569988) can0 244#000000330F
(1761200170.580223) can0 244#0000003321
(1761200170.595665) can0 123#0001515549504F20
(1761200170.595693) can0 244#0000003334
(1761200170.611227) can0 244#0000003346
(1761200170.626772) can0 244#0000003358
(1761200170.626785) can0 188#00000000
(1761200170.642062) can0 244#000000336A
(1761200170.657335) can0 244#000000337C
(1761200170.672605) can0 244#000000338E
(1761200170.683119) can0 244#00000033A0
(1761200170.698485) can0 244#00000033B2
(1761200170.714038) can0 244#00000033C4
(1761200170.724257) can0 244#00000033D7
(1761200170.739811) can0 244#00000033E9
(1761200170.755257) can0 244#00000033FB
(1761200170.770614) can0 244#000000340D
(1761200170.781102) can0 244#000000341F
(1761200170.796180) can0 123#0002444542494D4F
(1761200170.796632) can0 244#0000003431
(1761200170.812020) can0 244#0000003443
(1761200170.822440) can0 244#0000003455
(1761200170.837983) can0 244#0000003467
(1761200170.848303) can0 244#0000003479
(1761200170.863740) can0 244#000000348C
(1761200170.874031) can0 244#000000349E
(1761200170.889914) can0 244#00000034B0
(1761200170.900084) can0 244#00000034C2
(1761200170.910346) can0 244#00000034D4
(1761200170.926138) can0 244#00000034E6
(1761200170.941797) can0 244#00000034F8
(1761200170.957231) can0 244#000000350A
(1761200170.972501) can0 244#000000351C
(1761200170.987966) can0 244#000000352F
(1761200170.996771) can0 123#0003532043414D42
(1761200170.998092) can0 244#0000003541
(1761200171.013350) can0 244#0000003553
(1761200171.028846) can0 244#0000003565
(1761200171.044013) can0 244#0000003577
(1761200171.059409) can0 244#0000003589
(1761200171.074731) can0 244#000000359B
(1761200171.089877) can0 244#00000035AD
(1761200171.100006) can0 244#00000035BF
(1761200171.115287) can0 244#00000035D1
(1761200171.130541) can0 244#00000035E4
(1761200171.130623) can0 188#00000000
(1761200171.145796) can0 244#00000035F6
(1761200171.161265) can0 244#0000003608
(1761200171.176413) can0 244#000000361A
(1761200171.191969) can0 244#000000362C
(1761200171.197294) can0 123#0004494152204C41
(1761200171.202125) can0 244#000000363E
(1761200171.217582) can0 244#0000003650
(1761200171.233000) can0 244#0000003662
(1761200171.243278) can0 244#0000003674
(1761200171.258586) can0 244#0000003687
(1761200171.274071) can0 244#0000003699
(1761200171.284211) can0 244#00000036AB
(1761200171.299708) can0 244#00000036BD
(1761200171.310123) can0 244#00000036CF
(1761200171.325442) can0 244#00000036E1
(1761200171.340921) can0 244#00000036F3
(1761200171.356213) can0 244#0000003705
(1761200171.371606) can0 244#0000003717
(1761200171.386942) can0 244#0000003729
(1761200171.397140) can0 244#000000373C
(1761200171.397922) can0 123#0005204C49425245
(1761200171.412613) can0 244#000000374E
(1761200171.428046) can0 244#0000003760
(1761200171.438326) can0 244#0000003772
(1761200171.453570) can0 244#0000003784
(1761200171.468757) can0 244#0000003796
(1761200171.484004) can0 244#00000037A8
(1761200171.494163) can0 244#00000037BA
(1761200171.509422) can0 244#00000037CC
(1761200171.524657) can0 244#00000037DF
(1761200171.539917) can0 244#00000037CC
(1761200171.555101) can0 244#00000037BA
(1761200171.570428) can0 244#00000037A8
(1761200171.585591) can0 244#0000003796
(1761200171.598636) can0 123#000652494120414E
(1761200171.600848) can0 244#0000003784
(1761200171.616112) can0 244#0000003772
(1761200171.631338) can0 244#0000003760
(1761200171.636421) can0 188#00000000
(1761200171.646619) can0 244#000000374E
(1761200171.661812) can0 244#000000373C
(1761200171.677039) can0 244#0000003729
(1761200171.687228) can0 244#0000003717
(1761200171.702427) can0 244#0000003705
(1761200171.717648) can0 244#00000036F3
(1761200171.732916) can0 244#00000036E1
(1761200171.748168) can0 244#00000036CF
(1761200171.763418) can0 244#00000036BD
(1761200171.778581) can0 244#00000036AB
(1761200171.793891) can0 244#0000003699
(1761200171.799012) can0 123#0207544553
(1761200171.809170) can0 244#0000003687
(1761200171.824316) can0 244#0000003674
(1761200171.839560) can0 244#0000003662
(1761200171.854814) can0 244#0000003650
(1761200171.870029) can0 244#000000363E
(1761200171.880303) can0 244#000000362C
(1761200171.895787) can0 244#000000361A
(1761200171.911100) can0 244#0000003608
(1761200171.921281) can0 244#00000035F6
(1761200171.936823) can0 244#00000035E4
(1761200171.952153) can0 244#00000035D1
(1761200171.967386) can0 244#00000035BF
(1761200171.982948) can0 244#00000035AD
(1761200171.993179) can0 244#000000359B
(1761200172.008623) can0 244#0000003589
(1761200172.024011) can0 244#0000003577
(1761200172.034217) can0 244#0000003565
(1761200172.049775) can0 244#0000003553
(1761200172.065165) can0 244#0000003541
(1761200172.080669) can0 244#000000352F
(1761200172.096068) can0 244#000000351C
(1761200172.106390) can0 244#000000350A
(1761200172.121828) can0 244#00000034F8
(1761200172.132141) can0 244#00000034E6
(1761200172.137343) can0 188#01000000
(1761200172.147606) can0 244#00000034D4
(1761200172.163127) can0 244#00000034C2
(1761200172.178524) can0 244#00000034B0
(1761200172.194134) can0 244#000000349E
(1761200172.204329) can0 244#000000348C
(1761200172.219820) can0 244#0000003479
(1761200172.230104) can0 244#0000003467
(1761200172.245601) can0 244#0000003455
(1761200172.260998) can0 244#0000003443
(1761200172.271120) can0 244#0000003431
(1761200172.286493) can0 244#000000341F
(1761200172.301901) can0 244#000000340D
(1761200172.317120) can0 244#00000033FB
(1761200172.332485) can0 244#00000033E9
(1761200172.347958) can0 244#00000033D7
(1761200172.358160) can0 244#00000033C4
(1761200172.373422) can0 244#00000033B2
(1761200172.389147) can0 244#00000033A0
(1761200172.399292) can0 244#000000338E
(1761200172.414497) can0 244#000000337C
(1761200172.430326) can0 244#000000336A
(1761200172.445584) can0 244#0000003358
(1761200172.460866) can0 244#0000003346
(1761200172.476047) can0 244#0000003334
(1761200172.486253) can0 244#0000003321
(1761200172.501545) can0 244#000000330F
(1761200172.516817) can0 244#00000032FD
(1761200172.532083) can0 244#00000032EB
(1761200172.547708) can0 244#00000032D9
(1761200172.563030) can0 244#00000032C7
(1761200172.573269) can0 244#00000032B5
(1761200172.588634) can0 244#00000032A3
(1761200172.603986) can0 244#0000003291
(1761200172.619181) can0 244#000000327E
(1761200172.634468) can0 244#000000326C
(1761200172.639617) can0 188#00000000
(1761200172.649758) can0 244#000000325A
(1761200172.665043) can0 244#0000003248
(1761200172.675234) can0 244#0000003236
(1761200172.690431) can0 244#0000003224
(1761200172.705720) can0 244#0000003212
(1761200172.720936) can0 244#0000003200
(1761200172.731268) can0 244#00000031EE
(1761200172.746799) can0 244#00000031DC
(1761200172.762322) can0 244#00000031C9
(1761200172.777782) can0 244#00000031B7
(1761200172.793092) can0 244#00000031A5
(1761200172.803414) can0 244#0000003193
(1761200172.819136) can0 244#0000003181
(1761200172.829445) can0 244#000000316F
(1761200172.844951) can0 244#000000315D
(1761200172.855139) can0 244#000000314B
(1761200172.870734) can0 244#0000003139
(1761200172.881129) can0 244#0000003126
(1761200172.896776) can0 244#0000003114
(1761200172.907016) can0 244#0000003102
(1761200172.917298) can0 244#00000030F0
(1761200172.932747) can0 244#00000030DE
(1761200172.943182) can0 244#00000030CC
(1761200172.958507) can0 244#00000030BA
(1761200172.974008) can0 244#00000030A8
(1761200172.984309) can0 244#0000003096
(1761200172.999462) can0 244#0000003084
(1761200173.014862) can0 244#0000003071
(1761200173.030136) can0 244#000000305F
(1761200173.040292) can0 244#000000304D
(1761200173.055850) can0 244#000000303B
(1761200173.071294) can0 244#0000003029
(1761200173.086511) can0 244#0000003017
(1761200173.101954) can0 244#0000003005
(1761200173.117340) can0 244#0000002FF3
(1761200173.132802) can0 244#0000002FE1
(1761200173.143069) can0 188#01000000
(1761200173.148179) can0 244#0000002FCE
(1761200173.163581) can0 244#0000002FBC
(1761200173.179050) can0 244#0000002FAA
(1761200173.189137) can0 244#0000002F98
(1761200173.204609) can0 244#0000002F86
(1761200173.219936) can0 244#0000002F74
(1761200173.235268) can0 244#0000002F62
(1761200173.251054) can0 244#0000002F50
(1761200173.261179) can0 244#0000002F3E
(1761200173.276696) can0 244#0000002F2C
(1761200173.291985) can0 244#0000002F19
(1761200173.302141) can0 244#0000002F07
(1761200173.317698) can0 244#0000002EF5
(1761200173.333143) can0 244#0000002EE3
(1761200173.343414) can0 244#0000002ED1
(1761200173.358724) can0 244#0000002EBF
(1761200173.373914) can0 244#0000002EAD
(1761200173.384287) can0 244#0000002E9B
(1761200173.399583) can0 244#0000002E89
(1761200173.414871) can0 244#0000002E76
(1761200173.430049) can0 244#0000002E64
(1761200173.440499) can0 244#0000002E52
(1761200173.456056) can0 244#0000002E40
(1761200173.466235) can0 244#0000002E2E
(1761200173.481553) can0 244#0000002E1C
(1761200173.497042) can0 244#0000002E0A
(1761200173.507421) can0 244#0000002DF8
(1761200173.522910) can0 244#0000002DE6
(1761200173.538090) can0 244#0000002DD4
(1761200173.548314) can0 244#0000002DC1
(1761200173.563542) can0 244#0000002DAF
(1761200173.578755) can0 244#0000002D9D
(1761200173.594266) can0 244#0000002D8B
(1761200173.609825) can0 244#0000002D79
(1761200173.625103) can0 244#0000002D67
(1761200173.635307) can0 244#0000002D55
(1761200173.645543) can0 188#00000000
(1761200173.650740) can0 244#0000002D43
(1761200173.666300) can0 244#0000002D31
(1761200173.681944) can0 244#0000002D1E
(1761200173.692226) can0 244#0000002D0C
(1761200173.707701) can0 244#0000002CFA
(1761200173.723271) can0 244#0000002CE8
(1761200173.738633) can0 244#0000002CD6
(1761200173.754209) can0 244#0000002CC4
(1761200173.769768) can0 244#0000002CB2
(1761200173.785213) can0 244#0000002CA0
(1761200173.800905) can0 244#0000002C8E
(1761200173.811219) can0 244#0000002C7C
(1761200173.826777) can0 244#0000002C69
(1761200173.837205) can0 244#0000002C57
(1761200173.852742) can0 244#0000002C45
(1761200173.868238) can0 244#0000002C33
(1761200173.883689) can0 244#0000002C21
(1761200173.899569) can0 244#0000002C0F
(1761200173.909747) can0 244#0000002BFD
(1761200173.925273) can0 244#0000002BEB
(1761200173.940709) can0 244#0000002BD9
(1761200173.956093) can0 244#0000002BC6
(1761200173.966292) can0 244#0000002BB4
(1761200173.981623) can0 244#0000002BA2
(1761200173.997198) can0 244#0000002B90
(1761200174.001499) can0 123#0100484F4C412045
(1761200174.012784) can0 244#0000002B7E
(1761200174.028268) can0 244#0000002B6C
(1761200174.043721) can0 244#0000002B5A
(1761200174.054264) can0 244#0000002B48
(1761200174.069822) can0 244#0000002B36
(1761200174.084974) can0 244#0000002B24
(1761200174.095312) can0 244#0000002B11
(1761200174.110898) can0 244#0000002AFF
(1761200174.126454) can0 244#0000002AED
(1761200174.141903) can0 244#0000002ADB
(1761200174.147125) can0 188#01000000
(1761200174.152144) can0 244#0000002AC9
(1761200174.167706) can0 244#0000002AB7
(1761200174.183164) can0 244#0000002AA5
(1761200174.193488) can0 244#0000002A93
(1761200174.202066) can0 123#0001515549504F20
(1761200174.208998) can0 244#0000002A81
(1761200174.219176) can0 244#0000002A6E
(1761200174.234765) can0 244#0000002A5C
(1761200174.245148) can0 244#0000002A4A
(1761200174.260784) can0 244#0000002A38
(1761200174.276242) can0 244#0000002A26
(1761200174.291863) can0 244#0000002A14
(1761200174.307428) can0 244#0000002A02
(1761200174.322842) can0 244#00000029F0
(1761200174.338066) can0 244#00000029DE
(1761200174.348275) can0 244#00000029CC
(1761200174.363824) can0 244#00000029B9
(1761200174.379392) can0 244#00000029A7
(1761200174.395024) can0 244#0000002995
(1761200174.402584) can0 123#0002444542494D4F
(1761200174.405403) can0 244#0000002983
(1761200174.420745) can0 244#0000002971
(1761200174.436077) can0 244#000000295F
(1761200174.446309) can0 244#000000294D
(1761200174.461606) can0 244#000000293B
(1761200174.477058) can0 244#0000002929
(1761200174.487315) can0 244#0000002916
(1761200174.503006) can0 244#0000002904
(1761200174.513415) can0 244#00000028F2
(1761200174.529025) can0 244#00000028E0
(1761200174.539210) can0 244#00000028CE
(1761200174.554516) can0 244#00000028BC
(1761200174.569784) can0 244#00000028AA
(1761200174.584973) can0 244#0000002898
(1761200174.600148) can0 244#0000002886
(1761200174.603311) can0 123#0003532043414D42
(1761200174.610347) can0 244#0000002874
(1761200174.625510) can0 244#0000002861
(1761200174.640850) can0 244#000000284F
(1761200174.650830) can0 188#00000000
(1761200174.655908) can0 244#000000283D
(1761200174.671208) can0 244#000000282B
(1761200174.681334) can0 244#0000002819
(1761200174.696582) can0 244#0000002807
(1761200174.711693) can0 244#00000027F5
(1761200174.726971) can0 244#00000027E3
(1761200174.742049) can0 244#00000027D1
(1761200174.752455) can0 244#00000027BE
(1761200174.767563) can0 244#00000027AC
(1761200174.782879) can0 244#000000279A
(1761200174.798054) can0 244#0000002788
(1761200174.803870) can0 123#0004494152204C41
(1761200174.813250) can0 244#0000002776
(1761200174.828510) can0 244#0000002764
(1761200174.844068) can0 244#0000002752
(1761200174.859234) can0 244#0000002740
(1761200174.874558) can0 244#000000272E
(1761200174.890071) can0 244#000000271C
(1761200174.905437) can0 244#0000002709
(1761200174.915705) can0 244#00000026F7
(1761200174.931192) can0 244#00000026E5
(1761200174.941404) can0 244#00000026D3
(1761200174.956611) can0 244#00000026C1
(1761200174.971854) can0 244#00000026AF
(1761200174.987013) can0 244#000000269D
(1761200174.997165) can0 244#000000268B
(1761200175.004575) can0 123#0005204C49425245
(1761200175.012506) can0 244#0000002679
(1761200175.027736) can0 244#0000002666
(1761200175.042975) can0 244#0000002654
(1761200175.058220) can0 244#0000002642
(1761200175.073522) can0 244#0000002630
(1761200175.089034) can0 244#000000261E
(1761200175.104356) can0 244#000000260C
(1761200175.119910) can0 244#00000025FA
(1761200175.135356) can0 244#00000025E8
(1761200175.150927) can0 244#00000025D6
(1761200175.150936) can0 188#01000000
(1761200175.166198) can0 244#00000025C4
(1761200175.176492) can0 244#00000025B1
(1761200175.192076) can0 244#000000259F
(1761200175.202355) can0 244#000000258D
(1761200175.205039) can0 123#000652494120414E
(1761200175.217893) can0 244#000000257B
(1761200175.233387) can0 244#0000002569
(1761200175.243501) can0 244#0000002557
(1761200175.258796) can0 244#0000002545
(1761200175.274128) can0 244#0000002533
(1761200175.284271) can0 244#0000002521
(1761200175.299715) can0 244#000000250E
(1761200175.315173) can0 244#00000024FC
(1761200175.325445) can0 244#00000024EA
(1761200175.341068) can0 244#00000024D8
(1761200175.351270) can0 244#00000024C6
(1761200175.366565) can0 244#00000024B4
(1761200175.381999) can0 244#00000024A2
(1761200175.397045) can0 244#0000002490
(1761200175.405507) can0 123#0207544553
(1761200175.407281) can0 244#000000247E
(1761200175.422860) can0 244#000000246C
(1761200175.438041) can0 244#0000002459
(1761200175.453192) can0 244#0000002447
(1761200175.468671) can0 244#0000002435
(1761200175.484119) can0 244#0000002423
(1761200175.494491) can0 244#0000002411
(1761200175.509933) can0 244#00000023FF
(1761200175.525181) can0 244#00000023ED
(1761200175.535532) can0 244#00000023DB
(1761200175.550978) can0 244#00000023C9
(1761200175.566196) can0 244#00000023B6
(1761200175.576649) can0 244#00000023A4
(1761200175.592202) can0 244#0000002392
(1761200175.602475) can0 244#0000002380
(1761200175.617989) can0 244#000000236E
(1761200175.628265) can0 244#000000235C
(1761200175.643797) can0 244#000000234A
(1761200175.654140) can0 188#00000000
(1761200175.659251) can0 244#0000002338
(1761200175.669505) can0 244#0000002326
(1761200175.685026) can0 244#0000002314
(1761200175.700279) can0 244#0000002301
(1761200175.715757) can0 244#00000022EF
(1761200175.731019) can0 244#00000022DD
(1761200175.746251) can0 244#00000022CB
(1761200175.756381) can0 244#00000022B9
(1761200175.771599) can0 244#00000022A7
(1761200175.786863) can0 244#0000002295
(1761200175.802197) can0 244#0000002283
(1761200175.812414) can0 244#0000002271
(1761200175.827913) can0 244#000000225E
(1761200175.843258) can0 244#000000224C
(1761200175.858565) can0 244#000000223A
(1761200175.873927) can0 244#0000002228
(1761200175.889160) can0 244#0000002216
(1761200175.899488) can0 244#0000002204
(1761200175.909962) can0 244#00000021F2
(1761200175.925413) can0 244#00000021E0
(1761200175.940771) can0 244#00000021CE
(1761200175.956134) can0 244#00000021BC
(1761200175.966323) can0 244#00000021A9
(1761200175.981612) can0 244#0000002197
(1761200175.996947) can0 244#0000002185
(1761200176.012378) can0 244#0000002173
(1761200176.027760) can0 244#0000002161
(1761200176.043318) can0 244#000000214F
(1761200176.058842) can0 244#000000213D
(1761200176.074066) can0 244#000000212B
(1761200176.084243) can0 244#0000002119
(1761200176.099496) can0 244#0000002107
(1761200176.114762) can0 244#00000020F4
(1761200176.130017) can0 244#00000020E2
(1761200176.145205) can0 244#00000020D0
(1761200176.155525) can0 244#00000020BE
(1761200176.155635) can0 188#01000000
(1761200176.170789) can0 244#00000020AC
(1761200176.186014) can0 244#000000209A
(1761200176.201219) can0 244#0000002088
(1761200176.211495) can0 244#0000002076
(1761200176.226719) can0 244#0000002064
(1761200176.241955) can0 244#0000002051
(1761200176.257182) can0 244#000000203F
(1761200176.267616) can0 244#000000202D
(1761200176.282934) can0 244#000000201B
(1761200176.298291) can0 244#0000002009
(1761200176.313849) can0 244#0000001FF7
(1761200176.328984) can0 244#0000001FE5
(1761200176.344168) can0 244#0000001FD3
(1761200176.354380) can0 244#0000001FC1
(1761200176.369605) can0 244#0000001FAF
(1761200176.384831) can0 244#0000001F9C
(1761200176.400218) can0 244#0000001F8A
(1761200176.410527) can0 244#0000001F78
(1761200176.426128) can0 244#0000001F66
(1761200176.441325) can0 244#0000001F54
(1761200176.456711) can0 244#0000001F42
(1761200176.472050) can0 244#0000001F30
(1761200176.487433) can0 244#0000001F1E
(1761200176.502921) can0 244#0000001F0C
(1761200176.518238) can0 244#0000001EF9
(1761200176.528511) can0 244#0000001EE7
(1761200176.543969) can0 244#0000001ED5
(1761200176.554427) can0 244#0000001EC3
(1761200176.570048) can0 244#0000001EB1
(1761200176.585426) can0 244#0000001E9F
(1761200176.601008) can0 244#0000001E8D
(1761200176.616123) can0 244#0000001E7B
(1761200176.626440) can0 244#0000001E69
(1761200176.641798) can0 244#0000001E57
(1761200176.657089) can0 244#0000001E44
(1761200176.662092) can0 188#00000000
(1761200176.672263) can0 244#0000001E32
(1761200176.687570) can0 244#0000001E20
(1761200176.703120) can0 244#0000001E0E
(1761200176.718292) can0 244#0000001DFC
(1761200176.733676) can0 244#0000001DEA
(1761200176.749056) can0 244#0000001DD8
(1761200176.764229) can0 244#0000001DC6
(1761200176.774396) can0 244#0000001DB4
(1761200176.789882) can0 244#0000001DA1
(1761200176.805115) can0 244#0000001D8F
(1761200176.820449) can0 244#0000001D7D
(1761200176.835636) can0 244#0000001D6B
(1761200176.850789) can0 244#0000001D59
(1761200176.866224) can0 244#0000001D47
(1761200176.876483) can0 244#0000001D35
(1761200176.891971) can0 244#0000001D23
(1761200176.907295) can0 244#0000001D11
(1761200176.922995) can0 244#0000001CFF
(1761200176.938401) can0 244#0000001CEC
(1761200176.953895) can0 244#0000001CDA
(1761200176.969346) can0 244#0000001CC8
(1761200176.984636) can0 244#0000001CB6
(1761200177.000119) can0 244#0000001CA4
(1761200177.015606) can0 244#0000001C92
(1761200177.030961) can0 244#0000001C80
(1761200177.046406) can0 244#0000001C6E
(1761200177.062051) can0 244#0000001C5C
(1761200177.072302) can0 244#0000001C49
(1761200177.087944) can0 244#0000001C37
(1761200177.103182) can0 244#0000001C25
(1761200177.113297) can0 244#0000001C13
(1761200177.128596) can0 244#0000001C01
(1761200177.143996) can0 244#0000001BEF
(1761200177.159233) can0 244#0000001BDD
(1761200177.164321) can0 188#01000000
(1761200177.169508) can0 244#0000001BCB
(1761200177.184977) can0 244#0000001BB9
(1761200177.200299) can0 244#0000001BA7
(1761200177.210555) can0 244#0000001B94
(1761200177.226079) can0 244#0000001B82
(1761200177.241476) can0 244#0000001B70
(1761200177.256971) can0 244#0000001B5E
(1761200177.272386) can0 244#0000001B4C
(1761200177.288071) can0 244#0000001B3A
(1761200177.298413) can0 244#0000001B28
(1761200177.314015) can0 244#0000001B16
(1761200177.329506) can0 244#0000001B04
(1761200177.345094) can0 244#0000001AF1
(1761200177.355353) can0 244#0000001ADF
(1761200177.370927) can0 244#0000001ACD
(1761200177.386351) can0 244#0000001ABB
(1761200177.401880) can0 244#0000001AA9
(1761200177.417218) can0 244#0000001A97
(1761200177.427485) can0 244#0000001A85
(1761200177.442760) can0 244#0000001A73
(1761200177.458152) can0 244#0000001A61
(1761200177.473704) can0 244#0000001A4F
(1761200177.488871) can0 244#0000001A3C
(1761200177.504089) can0 244#0000001A2A
(1761200177.519292) can0 244#0000001A18
(1761200177.529497) can0 244#0000001A06
(1761200177.544685) can0 244#00000019F4
(1761200177.559883) can0 244#00000019E2
(1761200177.575211) can0 244#00000019D0
(1761200177.585325) can0 244#00000019BE
(1761200177.600822) can0 244#00000019AC
(1761200177.607936) can0 123#0100484F4C412045
(1761200177.616089) can0 244#0000001999
(1761200177.626372) can0 244#0000001987
(1761200177.641969) can0 244#0000001975
(1761200177.657272) can0 244#0000001963
(1761200177.667443) can0 244#0000001951
(1761200177.667610) can0 188#00000000
(1761200177.682882) can0 244#000000193F
(1761200177.698058) can0 244#000000192D
(1761200177.713297) can0 244#000000191B
(1761200177.723384) can0 244#0000001909
(1761200177.738710) can0 244#00000018F7
(1761200177.753885) can0 244#00000018E4
(1761200177.769104) can0 244#00000018D2
(1761200177.784429) can0 244#00000018C0
(1761200177.799598) can0 244#00000018AE
(1761200177.808613) can0 123#0001515549504F20
(1761200177.814860) can0 244#000000189C
(1761200177.830099) can0 244#000000188A
(1761200177.845476) can0 244#0000001878
(1761200177.860859) can0 244#0000001866
(1761200177.876313) can0 244#0000001854
(1761200177.886533) can0 244#0000001841
(1761200177.901838) can0 244#000000182F
(1761200177.911929) can0 244#000000181D
(1761200177.927143) can0 244#000000180B
(1761200177.937340) can0 244#00000017F9
(1761200177.952559) can0 244#00000017E7
(1761200177.967857) can0 244#00000017D5
(1761200177.982979) can0 244#00000017C3
(1761200177.998274) can0 244#00000017B1
(1761200178.008475) can0 244#000000179F
(1761200178.009076) can0 123#0002444542494D4F
(1761200178.023779) can0 244#000000178C
(1761200178.038966) can0 244#000000177A
(1761200178.054210) can0 244#0000001768
(1761200178.064363) can0 244#0000001756
(1761200178.079630) can0 244#0000001744
(1761200178.094884) can0 244#0000001732
(1761200178.110183) can0 244#0000001720
(1761200178.121158) can0 244#000000170E
(1761200178.131637) can0 244#00000016FC
(1761200178.147146) can0 244#00000016EA
(1761200178.157706) can0 244#00000016D7
(1761200178.168001) can0 188#01000000
(1761200178.173113) can0 244#00000016C5
(1761200178.188544) can0 244#00000016B3
(1761200178.199408) can0 244#00000016A1
(1761200178.209814) can0 123#0003532043414D42
(1761200178.215039) can0 244#000000168F
(1761200178.230293) can0 244#000000167D
(1761200178.245592) can0 244#000000166B
(1761200178.260938) can0 244#0000001659
(1761200178.276129) can0 244#0000001647
(1761200178.291412) can0 244#0000001634
(1761200178.306887) can0 244#0000001622
(1761200178.322110) can0 244#0000001610
(1761200178.337325) can0 244#00000015FE
(1761200178.347597) can0 244#00000015EC
(1761200178.362995) can0 244#00000015DA
(1761200178.378553) can0 244#00000015C8
(1761200178.394002) can0 244#00000015B6
(1761200178.409425) can0 244#00000015A4
(1761200178.410400) can0 123#0004494152204C41
(1761200178.424957) can0 244#0000001592
(1761200178.440421) can0 244#000000157F
(1761200178.456079) can0 244#000000156D
(1761200178.471495) can0 244#000000155B
(1761200178.487177) can0 244#0000001549
(1761200178.497347) can0 244#0000001537
(1761200178.512833) can0 244#0000001525
(1761200178.528061) can0 244#0000001513
(1761200178.543250) can0 244#0000001501
(1761200178.553488) can0 244#00000014EF
(1761200178.568697) can0 244#00000014DC
(1761200178.583916) can0 244#00000014CA
(1761200178.599174) can0 244#00000014B8
(1761200178.609371) can0 244#00000014A6
(1761200178.611145) can0 123#0005204C49425245
(1761200178.624982) can0 244#0000001494
(1761200178.640374) can0 244#0000001482
(1761200178.656072) can0 244#0000001470
(1761200178.671416) can0 244#000000145E
(1761200178.671423) can0 188#00000000
(1761200178.681700) can0 244#000000144C
(1761200178.697055) can0 244#000000143A
(1761200178.712439) can0 244#0000001427
(1761200178.727893) can0 244#0000001415
(1761200178.743288) can0 244#0000001403
(1761200178.753596) can0 244#00000013F1
(1761200178.769093) can0 244#00000013DF
(1761200178.784264) can0 244#00000013CD
(1761200178.794486) can0 244#00000013BB
(1761200178.809831) can0 244#00000013A9
(1761200178.811594) can0 123#000652494120414E
(1761200178.825103) can0 244#0000001397
(1761200178.840271) can0 244#0000001384
(1761200178.850469) can0 244#0000001372
(1761200178.865778) can0 244#0000001360
(1761200178.880928) can0 244#000000134E
(1761200178.896257) can0 244#000000133C
(1761200178.906349) can0 244#000000132A
(1761200178.916555) can0 244#0000001318
(1761200178.931816) can0 244#0000001306
(1761200178.946904) can0 244#00000012F4
(1761200178.962300) can0 244#00000012E2
(1761200178.972553) can0 244#00000012CF
(1761200178.987755) can0 244#00000012BD
(1761200179.003071) can0 244#00000012AB
(1761200179.011877) can0 123#0207544553
(1761200179.018505) can0 244#0000001299
(1761200179.033970) can0 244#0000001287
(1761200179.049458) can0 244#0000001275
(1761200179.064752) can0 244#0000001263
(1761200179.080215) can0 244#0000001251
(1761200179.090386) can0 244#000000123F
(1761200179.105965) can0 244#000000122C
(1761200179.121271) can0 244#000000121A
(1761200179.131580) can0 244#0000001208
(1761200179.146747) can0 244#00000011F6
(1761200179.162092) can0 244#00000011E4
(1761200179.172288) can0 188#01000000
(1761200179.177322) can0 244#00000011D2
(1761200179.187467) can0 244#00000011C0
(1761200179.202688) can0 244#00000011AE
(1761200179.217985) can0 244#000000119C
(1761200179.233267) can0 244#000000118A
(1761200179.243420) can0 244#0000001177
(1761200179.258933) can0 244#0000001165
(1761200179.274226) can0 244#0000001153
(1761200179.284395) can0 244#0000001141
(1761200179.299966) can0 244#000000112F
(1761200179.315313) can0 244#000000111D
(1761200179.325504) can0 244#000000110B
(1761200179.340685) can0 244#00000010F9
(1761200179.355997) can0 244#00000010E7
(1761200179.371124) can0 244#00000010D4
(1761200179.381474) can0 244#00000010C2
(1761200179.397089) can0 244#00000010B0
(1761200179.412397) can0 244#000000109E
(1761200179.427890) can0 244#000000108C
(1761200179.443367) can0 244#000000107A
(1761200179.458933) can0 244#0000001068
(1761200179.474244) can0 244#0000001056
(1761200179.489393) can0 244#0000001044
(1761200179.504954) can0 244#0000001032
(1761200179.520146) can0 244#000000101F
(1761200179.530393) can0 244#000000100D
(1761200179.545859) can0 244#0000000FFB
(1761200179.561228) can0 244#0000000FE9
(1761200179.571389) can0 244#0000000FD7
(1761200179.586972) can0 244#0000000FC5
(1761200179.602335) can0 244#0000000FB3
(1761200179.612651) can0 244#0000000FA1
(1761200179.627994) can0 244#0000000F8F
(1761200179.643215) can0 244#0000000F7C
(1761200179.653345) can0 244#0000000F6A
(1761200179.668622) can0 244#0000000F58
(1761200179.673837) can0 188#00000000
(1761200179.683966) can0 244#0000000F46
(1761200179.699252) can0 244#0000000F34
(1761200179.709530) can0 244#0000000F22
(1761200179.724665) can0 244#0000000F10
(1761200179.740034) can0 244#0000000EFE
(1761200179.755168) can0 244#0000000EEC
(1761200179.770373) can0 244#0000000EDA
(1761200179.785632) can0 244#0000000EC7
(1761200179.801054) can0 244#0000000EB5
(1761200179.816180) can0 244#0000000EA3
(1761200179.831457) can0 244#0000000E91
(1761200179.846689) can0 244#0000000E7F
(1761200179.861892) can0 244#0000000E6D
(1761200179.877209) can0 244#0000000E5B
(1761200179.887382) can0 244#0000000E49
(1761200179.902963) can0 244#0000000E37
(1761200179.913036) can0 244#0000000E24
(1761200179.928414) can0 244#0000000E12
(1761200179.938581) can0 244#0000000E00
(1761200179.953854) can0 244#0000000DEE
(1761200179.969024) can0 244#0000000DDC
(1761200179.984373) can0 244#0000000DCA
(1761200179.994470) can0 244#0000000DB8
(1761200180.009823) can0 244#0000000DA6
(1761200180.024927) can0 244#0000000D94
(1761200180.040290) can0 244#0000000D82
(1761200180.050402) can0 244#0000000D6F
(1761200180.065690) can0 244#0000000D5D
(1761200180.081000) can0 244#0000000D4B
(1761200180.096560) can0 244#0000000D39
(1761200180.111925) can0 244#0000000D27
(1761200180.127153) can0 244#0000000D15
(1761200180.142463) can0 244#0000000D03
(1761200180.157718) can0 244#0000000CF1
(1761200180.173047) can0 244#0000000CDF
(1761200180.178133) can0 188#01000000
(1761200180.188201) can0 244#0000000CCD
(1761200180.198393) can0 244#0000000CBA
(1761200180.214008) can0 244#0000000CA8
(1761200180.229405) can0 244#0000000C96
(1761200180.239670) can0 244#0000000C84
(1761200180.255033) can0 244#0000000C72
(1761200180.270286) can0 244#0000000C60
(1761200180.280539) can0 244#0000000C4E
(1761200180.296162) can0 244#0000000C3C
(1761200180.311504) can0 244#0000000C2A
(1761200180.327043) can0 244#0000000C17
(1761200180.342416) can0 244#0000000C05
(1761200180.357902) can0 244#0000000BF3
(1761200180.373217) can0 244#0000000BE1
(1761200180.383574) can0 244#0000000BCF
(1761200180.399104) can0 244#0000000BBD
(1761200180.409415) can0 244#0000000BAB
(1761200180.425135) can0 244#0000000B99
(1761200180.440473) can0 244#0000000B87
(1761200180.455805) can0 244#0000000B75
(1761200180.470959) can0 244#0000000B62
(1761200180.486326) can0 244#0000000B50
(1761200180.496467) can0 244#0000000B3E
(1761200180.511657) can0 244#0000000B2C
(1761200180.526939) can0 244#0000000B1A
(1761200180.542148) can0 244#0000000B08
(1761200180.557391) can0 244#0000000AF6
(1761200180.567646) can0 244#0000000AE4
(1761200180.582872) can0 244#0000000AD2
(1761200180.598016) can0 244#0000000ABF
(1761200180.613290) can0 244#0000000AAD
(1761200180.623757) can0 244#0000000A9B
(1761200180.639359) can0 244#0000000A89
(1761200180.649697) can0 244#0000000A77
(1761200180.664891) can0 244#0000000A65
(1761200180.680060) can0 244#0000000A53
(1761200180.680190) can0 188#00000000
(1761200180.695339) can0 244#0000000A41
(1761200180.705753) can0 244#0000000A2F
(1761200180.721216) can0 244#0000000A1D
(1761200180.731490) can0 244#0000000A0A
(1761200180.747030) can0 244#00000009F8
(1761200180.762370) can0 244#00000009E6
(1761200180.772747) can0 244#00000009D4
(1761200180.788107) can0 244#00000009C2
(1761200180.803427) can0 244#00000009B0
(1761200180.813558) can0 244#000000099E
(1761200180.828955) can0 244#000000098C
(1761200180.844078) can0 244#000000097A
(1761200180.859289) can0 244#0000000967
(1761200180.869469) can0 244#0000000955
(1761200180.884729) can0 244#0000000943
(1761200180.899943) can0 244#0000000931
(1761200180.910154) can0 244#000000091F
(1761200180.925275) can0 244#000000090D
(1761200180.935476) can0 244#00000008FB
(1761200180.950898) can0 244#00000008E9
(1761200180.966243) can0 244#00000008D7
(1761200180.976620) can0 244#00000008C5
(1761200180.991905) can0 244#00000008B2
(1761200181.007100) can0 244#00000008A0
(1761200181.022367) can0 244#000000088E
(1761200181.032566) can0 244#000000087C
(1761200181.047819) can0 244#000000086A
(1761200181.063066) can0 244#0000000858
(1761200181.078308) can0 244#0000000846
(1761200181.088580) can0 244#0000000834
(1761200181.103862) can0 244#0000000822
(1761200181.119141) can0 244#000000080F
(1761200181.134463) can0 244#00000007FD
(1761200181.150021) can0 244#00000007EB
(1761200181.165144) can0 244#00000007D9
(1761200181.180449) can0 244#00000007C7
(1761200181.180462) can0 188#01000000
(1761200181.190618) can0 244#00000007B5
(1761200181.205871) can0 244#00000007A3
(1761200181.214460) can0 123#0100484F4C412045
(1761200181.221019) can0 244#0000000791
(1761200181.236249) can0 244#000000077F
(1761200181.251601) can0 244#000000076D
(1761200181.266772) can0 244#000000075A
(1761200181.281959) can0 244#0000000748
(1761200181.297057) can0 244#0000000736
(1761200181.312398) can0 244#0000000724
(1761200181.322616) can0 244#0000000712
(1761200181.337872) can0 244#0000000700
(1761200181.353039) can0 244#00000006EE
(1761200181.368408) can0 244#00000006DC
(1761200181.378558) can0 244#00000006CA
(1761200181.393853) can0 244#00000006B7
(1761200181.408991) can0 244#00000006A5
(1761200181.415043) can0 123#0001515549504F20
(1761200181.424282) can0 244#0000000693
(1761200181.439482) can0 244#0000000681
(1761200181.454837) can0 244#000000066F
(1761200181.469990) can0 244#000000065D
(1761200181.485168) can0 244#000000064B
(1761200181.495495) can0 244#0000000639
(1761200181.510767) can0 244#0000000627
(1761200181.526293) can0 244#0000000615
(1761200181.536725) can0 244#0000000602
(1761200181.552007) can0 244#00000005F0
(1761200181.567386) can0 244#00000005DE
(1761200181.577588) can0 244#00000005CC
(1761200181.592996) can0 244#00000005BA
(1761200181.608389) can0 244#00000005A8
(1761200181.615681) can0 123#0002444542494D4F
(1761200181.618848) can0 244#0000000596
(1761200181.634086) can0 244#0000000584
(1761200181.649383) can0 244#0000000572
(1761200181.659786) can0 244#000000055F
(1761200181.675325) can0 244#000000054D
(1761200181.685722) can0 244#000000053B
(1761200181.685736) can0 188#00000000
(1761200181.701069) can0 244#0000000529
(1761200181.716393) can0 244#0000000517
(1761200181.731963) can0 244#0000000505
(1761200181.747231) can0 244#00000004F3
(1761200181.757461) can0 244#00000004E1
(1761200181.772797) can0 244#00000004CF
(1761200181.788316) can0 244#00000004BD
(1761200181.803628) can0 244#00000004AA
(1761200181.816300) can0 123#0003532043414D42
(1761200181.819209) can0 244#0000000498
(1761200181.829567) can0 244#0000000486
(1761200181.845052) can0 244#0000000474
(1761200181.860506) can0 244#0000000462
(1761200181.876068) can0 244#0000000450
(1761200181.891519) can0 244#000000043E
(1761200181.907332) can0 244#000000042C
(1761200181.917511) can0 244#000000041A
(1761200181.933454) can0 244#0000000407
(1761200181.943887) can0 244#00000003F5
(1761200181.959088) can0 244#00000003E3
(1761200181.969424) can0 244#00000003D1
(1761200181.985037) can0 244#00000003BF
(1761200182.000349) can0 244#00000003AD
(1761200182.010584) can0 244#000000039B
(1761200182.016972) can0 123#0004494152204C41
(1761200182.026148) can0 244#0000000389
(1761200182.036429) can0 244#0000000377
(1761200182.052068) can0 244#0000000365
(1761200182.062429) can0 244#0000000352
(1761200182.078318) can0 244#0000000340
(1761200182.093604) can0 244#000000032E
(1761200182.109315) can0 244#000000031C
(1761200182.119503) can0 244#000000030A
(1761200182.135219) can0 244#00000002F8
(1761200182.145759) can0 244#00000002E6
(1761200182.161287) can0 244#00000002D4
(1761200182.176483) can0 244#00000002C2
(1761200182.186713) can0 188#00000000
(1761200182.191813) can0 244#00000002AF
(1761200182.207062) can0 244#000000029D
(1761200182.217407) can0 123#0005204C49425245
(1761200182.222362) can0 244#000000028B
(1761200182.232607) can0 244#0000000279
(1761200182.247776) can0 244#0000000267
(1761200182.262979) can0 244#0000000255
(1761200182.278279) can0 244#0000000243
(1761200182.288715) can0 244#0000000231
(1761200182.304071) can0 244#000000021F
(1761200182.319448) can0 244#000000020D
(1761200182.330011) can0 244#00000001FA
(1761200182.345554) can0 244#00000001E8
(1761200182.355786) can0 244#00000001D6
(1761200182.371488) can0 244#00000001C4
(1761200182.381733) can0 244#00000001B2
(1761200182.397244) can0 244#00000001A0
(1761200182.412612) can0 244#000000018E
(1761200182.418039) can0 123#000652494120414E
(1761200182.428179) can0 244#000000017C
(1761200182.443439) can0 244#000000016A
(1761200182.453848) can0 244#0000000157
(1761200182.469061) can0 244#0000000145
(1761200182.484880) can0 244#0000000133
(1761200182.499893) can0 244#0000000121
(1761200182.515116) can0 244#000000010F
(1761200182.530357) can0 244#00000000FD
(1761200182.540486) can0 244#00000000EB
(1761200182.555709) can0 244#00000000D9
(1761200182.570979) can0 244#00000000C7
(1761200182.586241) can0 244#00000000B5
(1761200182.601558) can0 244#00000000A2
(1761200182.617081) can0 244#00000001B3
(1761200182.618504) can0 123#0207544553
(1761200182.632370) can0 244#00000001C6
(1761200182.642662) can0 244#00000001C2
(1761200182.657972) can0 244#0000000175
(1761200182.673237) can0 244#0000000126
(1761200182.688474) can0 244#000000018A
(1761200182.693769) can0 188#02000000
(1761200182.699052) can0 244#0000000189
(1761200182.714375) can0 244#0000000157
(1761200182.724898) can0 244#00000001A0
(1761200182.740108) can0 244#0000000136
(1761200182.755313) can0 244#000000017F
(1761200182.770485) can0 244#00000001FA
(1761200182.785748) can0 244#000000016C
(1761200182.800958) can0 244#000000013E
(1761200182.816483) can0 244#00000001A2
(1761200182.826824) can0 244#00000001DC
(1761200182.841927) can0 244#000000018A
(1761200182.857177) can0 244#0000000149
(1761200182.872379) can0 244#00000001C6
(1761200182.882567) can0 244#00000001DD
(1761200182.898032) can0 244#000000017F
(1761200182.908257) can0 244#000000019A
(1761200182.923512) can0 244#000000012B
(1761200182.939214) can0 244#0000000122
(1761200182.949523) can0 244#0000000113
(1761200182.964718) can0 244#00000001B5
(1761200182.979887) can0 244#0000000108
(1761200182.995422) can0 244#00000001B5
(1761200183.005822) can0 244#000000018F
(1761200183.021281) can0 244#00000001CF
(1761200183.031595) can0 244#0000000194
(1761200183.047120) can0 244#00000001DF
(1761200183.062416) can0 244#0000000131
(1761200183.072835) can0 244#00000001F2
(1761200183.088211) can0 244#0000000170
(1761200183.098641) can0 244#0000000174
(1761200183.114264) can0 244#0000000118
(1761200183.129771) can0 244#0000000114
(1761200183.145077) can0 244#0000000168
(1761200183.160595) can0 244#00000001D5
(1761200183.176132) can0 244#00000001E8
(1761200183.191334) can0 244#0000000184
(1761200183.196533) can0 188#00000000
(1761200183.201701) can0 244#00000001EB
(1761200183.217145) can0 244#0000000170
(1761200183.232584) can0 244#000000015E
(1761200183.248123) can0 244#0000000129
(1761200183.263505) can0 244#0000000169
(1761200183.279112) can0 244#0000000104
(1761200183.294456) can0 244#000000018F
(1761200183.304806) can0 244#00000001CB
(1761200183.320145) can0 244#000000017E
(1761200183.335586) can0 244#0000000129
(1761200183.345848) can0 244#0000000101
(1761200183.361632) can0 244#00000001C6
(1761200183.377194) can0 244#00000001E9
(1761200183.392529) can0 244#0000000130
(1761200183.408078) can0 244#0000000197
(1761200183.423344) can0 244#000000018E
(1761200183.433719) can0 244#0000000101
(1761200183.449111) can0 244#00000001C3
(1761200183.464532) can0 244#0000000179
(1761200183.479879) can0 244#0000000131
(1761200183.495333) can0 244#00000001BE
(1761200183.505568) can0 244#0000000147
(1761200183.521017) can0 244#000000013F
(1761200183.536320) can0 244#00000001CA
(1761200183.551530) can0 244#00000001D7
(1761200183.567036) can0 244#0000000175
(1761200183.582340) can0 244#000000017C
(1761200183.592755) can0 244#00000001DC
(1761200183.608043) can0 244#0000000166
(1761200183.623315) can0 244#0000000180
(1761200183.633652) can0 244#00000001FC
(1761200183.648828) can0 244#00000001ED
(1761200183.664109) can0 244#000000010B
(1761200183.679360) can0 244#0000000177
(1761200183.694706) can0 244#0000000132
(1761200183.699872) can0 188#02000000
(1761200183.710076) can0 244#0000000110
(1761200183.725491) can0 244#0000000197
(1761200183.741135) can0 244#000000015D
(1761200183.756481) can0 244#0000000178
(1761200183.766715) can0 244#00000001B1
(1761200183.782150) can0 244#00000001A3
(1761200183.797476) can0 244#0000000196
(1761200183.807903) can0 244#0000000193
(1761200183.823085) can0 244#0000000128
(1761200183.838455) can0 244#0000000162
(1761200183.848962) can0 244#00000001C7
(1761200183.864341) can0 244#00000001D2
(1761200183.874691) can0 244#0000000181
(1761200183.890129) can0 244#0000000126
(1761200183.905520) can0 244#00000001E8
(1761200183.915848) can0 244#000000014E
(1761200183.931242) can0 244#0000000181
(1761200183.941665) can0 244#000000014B
(1761200183.957185) can0 244#00000001AB
(1761200183.972443) can0 244#0000000167
(1761200183.982633) can0 244#00000001BF
(1761200183.997904) can0 244#000000013B
(1761200184.013144) can0 244#000000017F
(1761200184.028485) can0 244#00000001B7
(1761200184.038908) can0 244#000000013D
(1761200184.054166) can0 244#000000011A
(1761200184.069380) can0 244#00000001CF
(1761200184.079602) can0 244#0000000146
(1761200184.094889) can0 244#00000001C3
(1761200184.110253) can0 244#0000000161
(1761200184.125717) can0 244#0000000195
(1761200184.141222) can0 244#0000000170
(1761200184.156440) can0 244#0000000195
(1761200184.166787) can0 244#000000018F
(1761200184.181881) can0 244#0000000104
(1761200184.197059) can0 244#0000000162
(1761200184.202232) can0 188#00000000
(1761200184.212362) can0 244#00000001CE
(1761200184.222537) can0 244#0000000136
(1761200184.237829) can0 244#0000000192
(1761200184.253095) can0 244#0000000113
(1761200184.268266) can0 244#00000001B5
(1761200184.283546) can0 244#0000000175
(1761200184.298790) can0 244#0000000101
(1761200184.314030) can0 244#00000001D2
(1761200184.329174) can0 244#0000000137
(1761200184.344440) can0 244#0000000105
(1761200184.354602) can0 244#000000013D
(1761200184.369888) can0 244#00000001D4
(1761200184.385227) can0 244#000000016D
(1761200184.400540) can0 244#0000000185
(1761200184.416138) can0 244#00000001D8
(1761200184.431474) can0 244#0000000148
(1761200184.441936) can0 244#00000001DC
(1761200184.457210) can0 244#0000000173
(1761200184.472704) can0 244#000000019C
(1761200184.488063) can0 244#0000000135
(1761200184.503362) can0 244#000000012A
(1761200184.518585) can0 244#0000000188
(1761200184.533772) can0 244#0000000118
(1761200184.549064) can0 244#0000000109
(1761200184.564247) can0 244#0000000186
(1761200184.579474) can0 244#00000001C9
(1761200184.589731) can0 244#0000000115
(1761200184.604927) can0 244#00000001B8
(1761200184.620147) can0 244#00000001F4
(1761200184.635496) can0 244#0000000135
(1761200184.645621) can0 244#00000001B7
(1761200184.660776) can0 244#00000001DE
(1761200184.675972) can0 244#0000000188
(1761200184.691236) can0 244#0000000165
(1761200184.706547) can0 244#000000010D
(1761200184.706660) can0 188#02000000
(1761200184.716955) can0 244#00000001DA
(1761200184.732260) can0 244#0000000177
(1761200184.742618) can0 244#00000001AC
(1761200184.757975) can0 244#0000000148
(1761200184.773366) can0 244#00000001CA
(1761200184.783663) can0 244#00000001CD
(1761200184.798930) can0 244#00000001A2
(1761200184.814076) can0 244#000000013B
(1761200184.820973) can0 123#0100484F4C412045
(1761200184.829459) can0 244#00000001D7
(1761200184.839821) can0 244#0000000142
(1761200184.855326) can0 244#000000012F
(1761200184.865737) can0 244#00000001BC
(1761200184.880962) can0 244#00000001BB
(1761200184.896218) can0 244#00000001BE
(1761200184.912559) can0 244#0000000174
(1761200184.922939) can0 244#000000018D
(1761200184.938558) can0 244#0000000104
(1761200184.949065) can0 244#0000000198
(1761200184.964677) can0 244#00000001C1
(1761200184.980106) can0 244#00000001AA
(1761200184.995846) can0 244#00000001BB
(1761200185.011315) can0 244#0000000126
(1761200185.021445) can0 123#0001515549504F20
(1761200185.026764) can0 244#00000001DC
(1761200185.042175) can0 244#000000010F
(1761200185.057575) can0 244#0000000136
(1761200185.072988) can0 244#00000001AE
(1761200185.088271) can0 244#00000001E2
(1761200185.098661) can0 244#0000000131
(1761200185.114302) can0 244#00000001D3
(1761200185.124540) can0 244#0000000162
(1761200185.140571) can0 244#00000001DB
(1761200185.151113) can0 244#00000001C9
(1761200185.166690) can0 244#0000000176
(1761200185.182633) can0 244#00000001A3
(1761200185.198067) can0 244#000000012D
(1761200185.208330) can0 188#00000000
(1761200185.213370) can0 244#000000015C
(1761200185.222143) can0 123#0002444542494D4F
(1761200185.223913) can0 244#000000010D
(1761200185.234691) can0 244#000000016D
(1761200185.250109) can0 244#0000000134
(1761200185.265613) can0 244#0000000100
(1761200185.281017) can0 244#000000014B
(1761200185.296456) can0 244#0000000180
(1761200185.306593) can0 244#0000000158
(1761200185.322059) can0 244#0000000123
(1761200185.337324) can0 244#00000001DA
(1761200185.347645) can0 244#0000000169
(1761200185.363146) can0 244#000000014C
(1761200185.378383) can0 244#000000017C
(1761200185.388668) can0 244#000000011D
(1761200185.404019) can0 244#000000012A
(1761200185.419376) can0 244#00000001C2
(1761200185.422872) can0 123#0003532043414D42
(1761200185.434751) can0 244#0000000175
(1761200185.450266) can0 244#00000001ED
(1761200185.460630) can0 244#00000001BA
(1761200185.476119) can0 244#00000001A0
(1761200185.491676) can0 244#0000000140
(1761200185.507168) can0 244#0000000105
(1761200185.522652) can0 244#000000019E
(1761200185.538287) can0 244#000000010E
(1761200185.548666) can0 244#00000001F4
(1761200185.564328) can0 244#000000019D
(1761200185.574703) can0 244#0000000105
(1761200185.590172) can0 244#0000000159
(1761200185.605512) can0 244#000000012F
(1761200185.615840) can0 244#0000000145
(1761200185.623503) can0 123#0004494152204C41
(1761200185.631154) can0 244#0000000123
(1761200185.646451) can0 244#00000001A8
(1761200185.656862) can0 244#000000016F
(1761200185.672298) can0 244#000000012C
(1761200185.687622) can0 244#0000000179
(1761200185.703373) can0 244#000000010B
(1761200185.713407) can0 188#02000000
(1761200185.718731) can0 244#0000000195
(1761200185.734196) can0 244#0000000114
(1761200185.749503) can0 244#0000000180
(1761200185.759913) can0 244#0000000154
(1761200185.775387) can0 244#000000010A
(1761200185.785699) can0 244#0000000104
(1761200185.801081) can0 244#00000001BD
(1761200185.816359) can0 244#00000001A2
(1761200185.823910) can0 123#0005204C49425245
(1761200185.826653) can0 244#00000001BE
(1761200185.842181) can0 244#0000000184
(1761200185.857592) can0 244#0000000181
(1761200185.868019) can0 244#000000014E
(1761200185.883301) can0 244#000000018E
(1761200185.898702) can0 244#00000001D7
(1761200185.909140) can0 244#000000010A
(1761200185.924444) can0 244#000000016B
(1761200185.934858) can0 244#0000000179
(1761200185.950066) can0 244#0000000144
(1761200185.965391) can0 244#0000000195
(1761200185.980712) can0 244#0000000109
(1761200185.995932) can0 244#00000001FE
(1761200186.011166) can0 244#0000000136
(1761200186.024633) can0 123#000652494120414E
(1761200186.026364) can0 244#000000017F
(1761200186.036825) can0 244#0000000149
(1761200186.051937) can0 244#0000000198
(1761200186.067279) can0 244#000000013F
(1761200186.082702) can0 244#000000018E
(1761200186.098214) can0 244#0000000122
(1761200186.113574) can0 244#0000000108
(1761200186.123924) can0 244#0000000122
(1761200186.139185) can0 244#0000000149
(1761200186.154633) can0 244#0000000139
(1761200186.164805) can0 244#0000000152
(1761200186.180106) can0 244#0000000166
(1761200186.195359) can0 244#00000001AA
(1761200186.210677) can0 244#00000001F9
(1761200186.215698) can0 188#00000000
(1761200186.224946) can0 123#0207544553
(1761200186.225896) can0 244#0000000187
(1761200186.241183) can0 244#0000000104
(1761200186.256458) can0 244#0000000138
(1761200186.266624) can0 244#00000001E1
(1761200186.281959) can0 244#0000000124
(1761200186.297141) can0 244#00000001D5
(1761200186.312325) can0 244#000000014C
(1761200186.327602) can0 244#00000001CE
(1761200186.337994) can0 244#0000000148
(1761200186.353028) can0 244#00000001F3
(1761200186.368274) can0 244#00000001D5
(1761200186.383534) can0 244#00000001DE
(1761200186.393606) can0 244#0000000154
(1761200186.408838) can0 244#0000000186
(1761200186.424010) can0 244#0000000103
(1761200186.439202) can0 244#00000001EF
(1761200186.454446) can0 244#00000001D9
(1761200186.464655) can0 244#000000011F
(1761200186.479946) can0 244#0000000154
(1761200186.495132) can0 244#000000010D
(1761200186.510421) can0 244#00000001FB
(1761200186.525579) can0 244#000000017F
(1761200186.535757) can0 244#000000014C
(1761200186.550973) can0 244#000000011F
(1761200186.566121) can0 244#00000001BD
(1761200186.581388) can0 244#0000000132
(1761200186.596698) can0 244#0000000176
(1761200186.611805) can0 244#00000001AC
(1761200186.627060) can0 244#00000001B5
(1761200186.642400) can0 244#00000001BC
(1761200186.657626) can0 244#0000000141
(1761200186.667787) can0 244#00000001D8
(1761200186.682934) can0 244#00000001DC
(1761200186.698140) can0 244#0000000196
(1761200186.713342) can0 244#00000001D5
(1761200186.718438) can0 188#02000000
(1761200186.728637) can0 244#000000019E
(1761200186.743907) can0 244#0000000107
(1761200186.759156) can0 244#00000001BE
(1761200186.774386) can0 244#0000000108
(1761200186.784706) can0 244#00000001ED
(1761200186.800248) can0 244#00000001CE
(1761200186.815661) can0 244#00000001FA
(1761200186.830982) can0 244#00000001E7
(1761200186.846550) can0 244#00000001BF
(1761200186.856970) can0 244#000000019C
(1761200186.872313) can0 244#0000000187
(1761200186.887845) can0 244#00000001CA
(1761200186.903005) can0 244#0000000111
(1761200186.913082) can0 244#0000000142
(1761200186.928306) can0 244#00000001BB
(1761200186.943650) can0 244#000000013B
(1761200186.953879) can0 244#0000000159
(1761200186.969088) can0 244#00000001D6
(1761200186.984342) can0 244#0000000124
(1761200186.999535) can0 244#0000000116
(1761200187.009945) can0 244#000000012F
(1761200187.025084) can0 244#0000000173
(1761200187.040359) can0 244#0000000128
(1761200187.055538) can0 244#0000000178
(1761200187.065807) can0 244#00000001C4
(1761200187.080970) can0 244#0000000100
(1761200187.096211) can0 244#00000001D5
(1761200187.111498) can0 244#0000000138
(1761200187.121713) can0 244#000000017A
(1761200187.137038) can0 244#0000000108
(1761200187.152219) can0 244#00000001AB
(1761200187.167414) can0 244#0000000133
(1761200187.182629) can0 244#000000012B
(1761200187.192826) can0 244#0000000185
(1761200187.208039) can0 244#0000000157
(1761200187.218100) can0 188#00000000
(1761200187.223200) can0 244#0000000134
(1761200187.238471) can0 244#00000001EF
(1761200187.253805) can0 244#000000016E
(1761200187.268980) can0 244#00000001B8
(1761200187.284315) can0 244#00000001CA
(1761200187.299566) can0 244#00000001A7
(1761200187.309753) can0 244#00000001DC
(1761200187.324938) can0 244#0000000130
(1761200187.340158) can0 244#00000001D4
(1761200187.355419) can0 244#000000013A
(1761200187.370635) can0 244#0000000188
(1761200187.380857) can0 244#00000001AC
(1761200187.396068) can0 244#0000000131
(1761200187.411264) can0 244#000000017A
(1761200187.426480) can0 244#00000001EC
(1761200187.441729) can0 244#00000001E4
(1761200187.456952) can0 244#00000001C5
(1761200187.472242) can0 244#00000001FC
(1761200187.487426) can0 244#0000000128
(1761200187.502697) can0 244#0000000158
(1761200187.517910) can0 244#00000001DC
(1761200187.533254) can0 244#0000000144
(1761200187.548708) can0 244#00000001CB
(1761200187.564231) can0 244#00000001B2
(1761200187.579648) can0 244#000000015A
(1761200187.589727) can0 244#00000001EF
(1761200187.604923) can0 244#0000000179
(1761200187.620110) can0 244#00000001AA
(1761200187.635411) can0 244#00000001B7
(1761200187.650583) can0 244#0000000119
(1761200187.660886) can0 244#000000019F
(1761200187.676330) can0 244#0000000189
(1761200187.691864) can0 244#0000000125
(1761200187.707328) can0 244#0000000128
(1761200187.717699) can0 244#000000015C
(1761200187.722814) can0 188#02000000
(1761200187.733452) can0 244#000000018C
(1761200187.743915) can0 244#000000016C
(1761200187.754784) can0 244#00000001D5
(1761200187.770212) can0 244#0000000159
(1761200187.785861) can0 244#00000001DD
(1761200187.801909) can0 244#00000001AD
(1761200187.817398) can0 244#000000017E
(1761200187.827925) can0 244#00000001A5
(1761200187.843263) can0 244#000000017B
(1761200187.858823) can0 244#0000000195
(1761200187.874753) can0 244#00000001AE
(1761200187.890444) can0 244#000000017B
(1761200187.900977) can0 244#0000000176
(1761200187.911108) can0 244#0000000146
(1761200187.926608) can0 244#000000013F
(1761200187.937026) can0 244#000000016C
(1761200187.952372) can0 244#00000001BF
(1761200187.962751) can0 244#00000001A0
(1761200187.978437) can0 244#00000001D3
(1761200187.989000) can0 244#000000018D
(1761200188.004376) can0 244#0000000117
(1761200188.014695) can0 244#000000015E
(1761200188.030111) can0 244#0000000121
(1761200188.045497) can0 244#000000015D
(1761200188.055780) can0 244#0000000131
(1761200188.071337) can0 244#0000000157
(1761200188.086791) can0 244#0000000118
(1761200188.102102) can0 244#00000001D6
(1761200188.117464) can0 244#0000000119
(1761200188.128087) can0 244#00000001DE
(1761200188.143572) can0 244#00000001D0
(1761200188.154088) can0 244#00000001C1
(1761200188.169408) can0 244#0000000166
(1761200188.184626) can0 244#00000001C1
(1761200188.194968) can0 244#00000001B7
(1761200188.210050) can0 244#000000015E
(1761200188.225346) can0 244#000000010A
(1761200188.225399) can0 188#00000000
(1761200188.240650) can0 244#0000000151
(1761200188.255979) can0 244#00000001A1
(1761200188.271202) can0 244#00000001A1
(1761200188.286552) can0 244#0000000102
(1761200188.296721) can0 244#00000001EB
(1761200188.312365) can0 244#00000001B8
(1761200188.327849) can0 244#0000000114
(1761200188.343187) can0 244#000000014D
(1761200188.358599) can0 244#0000000113
(1761200188.369021) can0 244#000000011C
(1761200188.384288) can0 244#0000000128
(1761200188.399788) can0 244#00000001D0
(1761200188.415126) can0 244#000000018C
(1761200188.427493) can0 123#0100484F4C412045
(1761200188.430646) can0 244#00000001D2
(1761200188.440984) can0 244#0000000184
(1761200188.456133) can0 244#0000000106
(1761200188.471298) can0 244#000000010F
(1761200188.486590) can0 244#000000017E
(1761200188.496799) can0 244#0000000154
(1761200188.511955) can0 244#0000000103
(1761200188.527366) can0 244#00000001B3
(1761200188.542890) can0 244#0000000146
(1761200188.558115) can0 244#0000000138
(1761200188.573620) can0 244#00000001AD
(1761200188.583868) can0 244#00000001B3
(1761200188.599143) can0 244#0000000197
(1761200188.614261) can0 244#00000001AF
(1761200188.628160) can0 123#0001515549504F20
(1761200188.629585) can0 244#0000000191
(1761200188.644791) can0 244#00000001EA
(1761200188.659917) can0 244#00000001AB
(1761200188.675163) can0 244#0000000137
(1761200188.690431) can0 244#0000000157
(1761200188.705747) can0 244#0000000168
(1761200188.715895) can0 244#00000001F5
(1761200188.731109) can0 244#00000001F6
(1761200188.731134) can0 188#02000000
(1761200188.746366) can0 244#000000016F
(1761200188.761585) can0 244#00000001C9
(1761200188.771763) can0 244#00000001A8
(1761200188.787051) can0 244#00000001D8
(1761200188.802389) can0 244#00000001F9
(1761200188.817640) can0 244#00000001E0
(1761200188.827760) can0 244#000000011C
(1761200188.828583) can0 123#0002444542494D4F
(1761200188.842990) can0 244#0000000166
(1761200188.858149) can0 244#0000000189
(1761200188.873422) can0 244#000000018B
(1761200188.888630) can0 244#0000000186
(1761200188.898957) can0 244#00000001AB
(1761200188.909050) can0 244#00000001B7
(1761200188.924288) can0 244#000000011F
(1761200188.939477) can0 244#000000019C
(1761200188.954677) can0 244#00000001D6
(1761200188.964863) can0 244#00000001EE
(1761200188.980472) can0 244#0000000180
(1761200188.995914) can0 244#00000001AC
(1761200189.011276) can0 244#0000000137
(1761200189.026620) can0 244#000000014E
(1761200189.029198) can0 123#0003532043414D42
(1761200189.036856) can0 244#00000001DF
(1761200189.052090) can0 244#0000000184
(1761200189.067270) can0 244#000000017C
(1761200189.082504) can0 244#00000001E5
(1761200189.097715) can0 244#000000014A
(1761200189.107771) can0 244#00000001D0
(1761200189.123051) can0 244#0000000159
(1761200189.138212) can0 244#00000001CE
(1761200189.153486) can0 244#00000001E1
(1761200189.168822) can0 244#00000001EC
(1761200189.184064) can0 244#0000000158
(1761200189.199302) can0 244#0000000146
(1761200189.214908) can0 244#00000001B0
(1761200189.229882) can0 123#0004494152204C41
(1761200189.230031) can0 244#000000014C
(1761200189.235217) can0 188#00000000
(1761200189.245388) can0 244#000000015B
(1761200189.260660) can0 244#000000012D
(1761200189.270895) can0 244#0000000105
(1761200189.286151) can0 244#00000001DD
(1761200189.301213) can0 244#00000001D2
(1761200189.316499) can0 244#00000001AD
(1761200189.331625) can0 244#000000017F
(1761200189.341772) can0 244#0000000119
(1761200189.357043) can0 244#0000000100
(1761200189.372307) can0 244#000000013B
(1761200189.387462) can0 244#00000001D2
(1761200189.402679) can0 244#00000001F2
(1761200189.412944) can0 244#0000000145
(1761200189.428126) can0 244#000000016E
(1761200189.430451) can0 123#0005204C49425245
(1761200189.443367) can0 244#000000013A
(1761200189.458558) can0 244#000000011A
(1761200189.468751) can0 244#0000000158
(1761200189.484028) can0 244#0000000135
(1761200189.499197) can0 244#00000001BA
(1761200189.514623) can0 244#00000001F1
(1761200189.524997) can0 244#0000000137
(1761200189.540215) can0 244#00000001A1
(1761200189.555610) can0 244#00000001DD
(1761200189.566033) can0 244#000000012D
(1761200189.581156) can0 244#000000018B
(1761200189.596502) can0 244#000000015A
(1761200189.606767) can0 244#0000000135
(1761200189.622063) can0 244#0000000180
(1761200189.631024) can0 123#000652494120414E
(1761200189.637199) can0 244#00000001BD
(1761200189.652437) can0 244#0000000183
(1761200189.667695) can0 244#0000000169
(1761200189.677868) can0 244#00000001B6
(1761200189.692955) can0 244#00000001CC
(1761200189.708236) can0 244#000000018A
(1761200189.723438) can0 244#000000012F
(1761200189.738655) can0 244#000000013A
(1761200189.738743) can0 188#00000000
(1761200189.748771) can0 244#00000001D3
(1761200189.764090) can0 244#000000014B
(1761200189.779280) can0 244#0000000170
(1761200189.794544) can0 244#00000001EF
(1761200189.809697) can0 244#00000001A3
(1761200189.819830) can0 244#00000001DE
(1761200189.831431) can0 123#0207544553
(1761200189.835121) can0 244#000000017F
(1761200189.850296) can0 244#0000000185
(1761200189.865580) can0 244#00000001E8
(1761200189.875908) can0 244#00000001D5
(1761200189.891129) can0 244#00000001BB
(1761200189.906384) can0 244#00000001DE
(1761200189.916488) can0 244#00000001A8
(1761200189.931863) can0 244#0000000111
(1761200189.946891) can0 244#00000001EB
(1761200189.962073) can0 244#00000001FB
(1761200189.977323) can0 244#000000014E
(1761200189.992553) can0 244#0000000165
(1761200190.007783) can0 244#00000001C5
(1761200190.022882) can0 244#00000001F5
(1761200190.038154) can0 244#00000001DB
(1761200190.053481) can0 244#0000000197
(1761200190.063795) can0 244#0000000111
(1761200190.079010) can0 244#0000000134
(1761200190.094315) can0 244#0000000135
(1761200190.109918) can0 244#0000000196
(1761200190.125044) can0 244#0000000106
(1761200190.140309) can0 244#000000011D
(1761200190.155521) can0 244#00000001BD
(1761200190.170670) can0 244#00000001D3
(1761200190.180881) can0 244#0000000174
(1761200190.196069) can0 244#00000001AC
(1761200190.211158) can0 244#000000013A
(1761200190.226345) can0 244#0000000181
(1761200190.241601) can0 244#0000000138
(1761200190.241783) can0 188#00000000
(1761200190.256882) can0 244#00000001F9
(1761200190.272089) can0 244#00000001FB
(1761200190.287210) can0 244#00000001D3
(1761200190.302425) can0 244#000000011A
(1761200190.317627) can0 244#0000000100
(1761200190.327831) can0 244#0000000144
(1761200190.343031) can0 244#00000001F2
(1761200190.358289) can0 244#00000001FA
(1761200190.373527) can0 244#0000000189
(1761200190.388742) can0 244#00000001A0
(1761200190.398959) can0 244#0000000182
(1761200190.414064) can0 244#0000000120
(1761200190.429261) can0 244#000000010B
(1761200190.444488) can0 244#0000000102
(1761200190.459830) can0 244#0000000101
(1761200190.474979) can0 244#000000019D
(1761200190.490259) can0 244#000000017A
(1761200190.505368) can0 244#00000001B5
(1761200190.520579) can0 244#00000001CB
(1761200190.535848) can0 244#00000001CA
(1761200190.551081) can0 244#0000000106
(1761200190.566177) can0 244#00000001FD
(1761200190.581408) can0 244#000000016E
(1761200190.596646) can0 244#00000001C1
(1761200190.606850) can0 244#00000001D6
(1761200190.622163) can0 244#000000015C
(1761200190.637213) can0 244#0000000150
(1761200190.652425) can0 244#000000019F
(1761200190.667600) can0 244#0000000133
(1761200190.677759) can0 244#000000016E
(1761200190.693089) can0 244#0000000174
(1761200190.708178) can0 244#00000001C9
(1761200190.723477) can0 244#0000000186
(1761200190.738645) can0 244#0000000162
(1761200190.743765) can0 188#00000000
(1761200190.749002) can0 244#00000001FF
(1761200190.764207) can0 244#0000000122
(1761200190.779577) can0 244#0000000143
(1761200190.790043) can0 244#000000018E
(1761200190.805326) can0 244#00000001B9
(1761200190.820606) can0 244#00000001E9
(1761200190.836014) can0 244#00000001CB
(1761200190.851081) can0 244#0000000156
(1761200190.866415) can0 244#0000000125
(1761200190.876798) can0 244#00000001F2
(1761200190.892080) can0 244#00000001F5
(1761200190.907420) can0 244#00000001C4
(1761200190.922772) can0 244#000000012B
(1761200190.933047) can0 244#000000018B
(1761200190.948203) can0 244#0000000195
(1761200190.963563) can0 244#0000000112
(1761200190.973870) can0 244#00000001F1
(1761200190.989137) can0 244#0000000137
(1761200191.004407) can0 244#000000012C
(1761200191.019637) can0 244#00000001FB
(1761200191.034841) can0 244#0000000195
